Time Stamp,ID,Extended,Dir,Bus,LEN,D1,D2,D3,D4,D5,D6,D7,D8
84297691,000001A0,false,Rx,1,8,00,80,00,00,80,00,E8,8B,
84298167,000000CE,false,Rx,1,8,00,00,00,00,00,00,00,00,
84299517,000000AA,false,Rx,0,8,5A,FD,01,00,20,0C,84,00,
84305560,000000A8,false,Rx,0,8,BD,0E,02,00,02,F1,0F,02,
84307493,000000A9,false,Rx,0,8,C3,1E,D9,EF,3D,D9,0F,0C,
84307626,000000B6,false,Rx,1,5,0E,0E,80,00,C8,00,00,00,
84308090,0000019E,false,Rx,1,8,00,E8,7F,FC,FF,BC,FF,C1,
84309523,000000AA,false,Rx,0,8,5B,FE,01,00,20,0C,84,00,
84315564,000000A8,false,Rx,0,8,BF,00,02,10,02,F1,0F,02,
84317488,000000A9,false,Rx,0,8,B5,10,D9,EF,3D,D9,0F,0C,
84317671,000001A6,false,Rx,1,8,DF,00,E7,00,E1,00,40,F2,
84318147,000000CE,false,Rx,1,8,00,00,00,00,00,00,00,00,
84318406,000001A0,false,Rx,1,8,00,80,00,00,80,00,08,AA,
84319513,000000AA,false,Rx,0,8,5D,00,02,00,20,0C,84,00,
84320990,00000480,false,Rx,1,8,02,42,FD,01,FF,FF,FF,FF,
84325549,000000A8,false,Rx,0,8,C0,01,02,10,02,F1,0F,02,
84327483,000000A9,false,Rx,0,8,B6,11,D9,EF,3D,D9,0F,0C,
84327616,000000B6,false,Rx,1,5,FF,00,80,00,C8,00,00,00,
84328079,0000019E,false,Rx,1,8,00,E8,7F,FC,FF,BC,FF,C1,
84329521,000000AA,false,Rx,0,8,5E,01,02,00,20,0C,84,00,
84334599,00000130,false,Rx,1,5,45,41,61,8F,42,00,00,00,
84335550,000000A8,false,Rx,0,8,B1,02,02,00,02,F1,0F,02,
84337483,000000A9,false,Rx,0,8,B7,12,D9,EF,3D,D9,0F,0C,
84337691,000001A0,false,Rx,1,8,00,80,00,00,80,00,18,BA,
84338167,000000CE,false,Rx,1,8,00,00,00,00,00,00,00,00,
84339507,000000AA,false,Rx,0,8,73,12,02,00,24,0C,84,00,
84345548,000000A8,false,Rx,0,8,B2,03,02,00,02,F1,0F,02,
84347483,000000A9,false,Rx,0,8,B8,13,D9,EF,3D,D9,0F,0C,
84347599,000000B6,false,Rx,1,5,00,01,80,00,C8,00,00,00,
84348071,0000019E,false,Rx,1,8,00,E8,7F,FC,FF,BC,FF,C1,
84348315,000005F8,false,Rx,1,8,6E,0C,00,00,FF,FF,FF,FF,
84349513,000000AA,false,Rx,0,8,74,13,02,00,24,0C,84,00,
84355534,000000A8,false,Rx,0,8,D3,14,02,10,02,F1,0F,02,
84357468,000000A9,false,Rx,0,8,B9,14,D9,EF,3D,D9,0F,0C,
84357651,000001A0,false,Rx,1,8,00,80,00,00,80,00,28,CA,
84358126,000000CE,false,Rx,1,8,00,00,00,00,00,00,00,00,
84359498,000000AA,false,Rx,0,8,5D,04,02,00,1C,0C,84,00,
84365540,000000A8,false,Rx,0,8,D4,15,02,10,02,F1,0F,02,
84367474,000000A9,false,Rx,0,8,BA,15,D9,EF,3D,D9,0F,0C,
84367606,000000B6,false,Rx,1,5,02,02,80,00,C8,00,00,00,
84367719,000001D0,false,Rx,0,8,5F,FF,6B,D2,8B,53,CD,9B,
84368063,0000019E,false,Rx,1,8,00,E8,7F,FC,FF,BC,FF,C1,
84369498,000000AA,false,Rx,0,8,5E,05,02,00,1C,0C,84,00,
84375532,000000A8,false,Rx,0,8,F5,26,02,20,02,F1,0F,02,
84377467,000000A9,false,Rx,0,8,BB,16,D9,EF,3D,D9,0F,0C,
84377542,00000194,false,Rx,1,4,FC,FC,FF,FF,00,00,00,00,
84378013,000001A0,false,Rx,1,8,00,80,00,00,80,00,38,DA,
84378286,000000CE,false,Rx,1,8,00,00,00,00,00,00,00,00,
84379483,000000AA,false,Rx,0,8,67,16,02,00,14,0C,84,00,
84385515,000000A8,false,Rx,0,8,F6,27,02,20,02,F1,0F,02,
84387479,000000A9,false,Rx,0,8,BC,17,D9,EF,3D,D9,0F,0C,
84387581,000000B6,false,Rx,1,5,03,03,80,00,C8,00,00,00,
84388045,0000019E,false,Rx,1,8,00,E8,7F,FC,FF,BC,FF,C1,
84389317,000001B4,false,Rx,1,8,00,D0,E6,F9,0F,FF,82,F8,
84389490,000000AA,false,Rx,0,8,68,17,02,00,14,0C,84,00,
84393780,000001B6,false,Rx,0,8,FF,FF,00,00,12,A8,1B,00,
84393924,00000308,false,Rx,0,3,CA,D2,F2,00,00,00,00,00,
84395530,000000A8,false,Rx,0,8,B7,08,02,00,02,F1,0F,02,
84397466,000000A9,false,Rx,0,8,9B,18,D8,DF,3D,D8,FF,0B,
84397652,000001A0,false,Rx,1,8,00,80,00,00,80,00,48,EA,
84398125,000000CE,false,Rx,1,8,00,00,00,00,00,00,00,00,
84398276,000001FB,false,Rx,1,2,F7,FF,00,00,00,00,00,00,
84399475,000000AA,false,Rx,0,8,71,18,02,00,1C,0C,84,00,
84405515,000000A8,false,Rx,0,8,B8,09,02,00,02,F1,0F,02,
84407460,000000A9,false,Rx,0,8,9C,19,D8,DF,3D,D8,FF,0B,
84407566,000000B6,false,Rx,1,5,04,04,80,00,C8,00,00,00,
84408037,0000019E,false,Rx,1,8,00,E8,7F,FC,FF,BC,FF,C1,
84409479,000000AA,false,Rx,0,8,72,19,02,00,1C,0C,84,00,
84411296,00000482,false,Rx,1,8,12,42,FE,01,FF,FF,FF,FF,
84415531,000000A8,false,Rx,0,8,99,FA,01,F0,01,F1,0F,02,
84417465,000000A9,false,Rx,0,8,9D,1A,D8,DF,3D,D8,FF,0B,
84417607,000001A6,false,Rx,1,8,DF,00,E7,00,E1,00,D0,F3,
84417752,00000200,false,Rx,0,8,42,81,FC,00,00,00,00,00,
84418085,000000CE,false,Rx,1,8,00,00,00,00,00,00,00,00,
84418582,000001A0,false,Rx,1,8,00,80,00,00,80,00,58,FA,
84419467,000000AA,false,Rx,0,8,6B,0A,02,00,24,0C,84,00,
84425513,000000A8,false,Rx,0,8,9A,FB,01,F0,01,F1,0F,02,
84427449,000000A9,false,Rx,0,8,9E,1B,D8,DF,3D,D8,FF,0B,
84427554,000000B6,false,Rx,1,5,05,05,80,00,C8,00,00,00,
84428016,0000019E,false,Rx,1,8,00,E8,8F,FC,FF,BC,FF,D1,
84429468,000000AA,false,Rx,0,8,6C,0B,02,00,24,0C,84,00,
84434513,00000130,false,Rx,1,5,45,41,61,8F,53,00,00,00,
84435514,000000A8,false,Rx,0,8,9B,FC,01,F0,01,F1,0F,02,
84437450,000000A9,false,Rx,0,8,9F,1C,D8,DF,3D,D8,FF,0B,
84437626,000001A0,false,Rx,1,8,00,80,00,00,80,00,68,0B,
84438110,000000CE,false,Rx,1,8,00,00,00,00,00,00,00,00,
84439462,000000AA,false,Rx,0,8,5D,FC,01,00,24,0C,84,00,
84445504,000000A8,false,Rx,0,8,9C,FD,01,F0,01,F1,0F,02,
131439,000000A9,false,Rx,0,8,A0,1D,D8,DF,3D,D8,FF,0B,
131534,000000B6,false,Rx,1,5,06,06,80,00,C8,00,00,00,
132006,0000019E,false,Rx,1,8,00,E8,8F,FC,FF,BC,FF,D1,
133468,000000AA,false,Rx,0,8,5E,FD,01,00,24,0C,84,00,
139520,000000A8,false,Rx,0,8,7D,EE,01,E0,01,F1,0F,02,
141445,000000A9,false,Rx,0,8,A1,1E,D8,DF,3D,D8,FF,0B,
141597,000001A0,false,Rx,1,8,00,80,00,00,80,00,78,1B,
142071,000000CE,false,Rx,1,8,00,00,00,00,00,00,00,00,
143452,000000AA,false,Rx,0,8,63,FE,01,00,28,0C,84,00,
149505,000000A8,false,Rx,0,8,6F,E0,01,E0,01,F1,0F,02,
151429,000000A9,false,Rx,0,8,93,10,D8,DF,3D,D8,FF,0B,
151525,000000B6,false,Rx,1,5,07,07,80,00,C8,00,00,00,
151687,000001D0,false,Rx,0,8,5F,FF,6C,D2,9F,53,CD,9B,
152000,0000019E,false,Rx,1,8,00,E8,8F,FC,FF,BC,FF,D1,
153455,000000AA,false,Rx,0,8,5D,F0,01,00,30,0C,84,00,
157769,000001B6,false,Rx,0,8,FF,FF,00,00,12,A8,19,00,
159491,000000A8,false,Rx,0,8,60,D1,01,E0,01,F1,0F,02,
161435,000000A9,false,Rx,0,8,94,11,D8,DF,3D,D8,FF,0B,
161601,000001A0,false,Rx,1,8,00,80,00,00,80,00,88,2B,
162075,000000CE,false,Rx,1,8,00,00,00,00,00,00,00,00,
163435,000000AA,false,Rx,0,8,4E,E1,01,00,30,0C,84,00,
169473,000000A8,false,Rx,0,8,61,D2,01,E0,01,F1,0F,02,
171437,000000A9,false,Rx,0,8,95,12,D8,DF,3D,D8,FF,0B,
171513,000000B6,false,Rx,1,5,08,08,80,00,C8,00,00,00,
171974,0000019E,false,Rx,1,8,00,E8,8F,FC,FF,BC,FF,D1,
173267,000001B4,false,Rx,1,8,00,D0,E6,FA,0F,FF,82,F9,
173439,000000AA,false,Rx,0,8,5B,E2,01,00,3C,0C,84,00,
179484,000000A8,false,Rx,0,8,42,C3,01,D0,01,F1,0F,02,
181429,000000A9,false,Rx,0,8,A6,13,D8,DF,3D,D8,0F,0C,
181571,000001A0,false,Rx,1,8,00,80,00,00,80,00,98,3B,
182057,000000CE,false,Rx,1,8,00,00,00,00,00,00,00,00,
183438,000000AA,false,Rx,0,8,4C,D3,01,00,3C,0C,84,00,
189471,000000A8,false,Rx,0,8,43,C4,01,D0,01,F1,0F,02,
191504,000000B6,false,Rx,1,5,09,09,80,00,C8,00,00,00,
191544,000000A9,false,Rx,0,8,A7,14,D8,DF,3D,D8,0F,0C,
191754,0000019E,false,Rx,1,8,00,E8,8F,FC,FF,BC,FF,D1,
193430,000000AA,false,Rx,0,8,41,D4,01,00,30,0C,84,00,
193934,00000492,false,Rx,0,8,29,42,FF,FF,FF,FF,FF,FF,
199485,000000A8,false,Rx,0,8,74,E5,01,E0,01,F1,0F,02,
201419,000000A9,false,Rx,0,8,A8,15,D8,DF,3D,D8,0F,0C,
201551,000001A6,false,Rx,1,8,DF,00,E7,00,E1,00,60,F5,
202027,000000CE,false,Rx,1,8,00,00,00,00,00,00,00,00,
202288,000001A0,false,Rx,1,8,00,80,00,00,80,00,A8,4B,
203425,000000AA,false,Rx,0,8,52,E5,01,00,30,0C,84,00,
209459,000000A8,false,Rx,0,8,75,E6,01,E0,01,F1,0F,02,
211404,000000A9,false,Rx,0,8,A9,16,D8,DF,3D,D8,0F,0C,
211489,000000B6,false,Rx,1,5,0A,0A,80,00,C8,00,00,00,
211951,0000019E,false,Rx,1,8,00,E8,8F,FC,FF,BC,FF,D1,
213433,000000AA,false,Rx,0,8,47,E6,01,00,24,0C,84,00,
218569,00000130,false,Rx,1,5,45,41,61,8F,64,00,00,00,
219470,000000A8,false,Rx,0,8,96,F7,01,F0,01,F1,0F,02,
221404,000000A9,false,Rx,0,8,9A,17,D8,DF,3D,D8,FF,0B,
221570,000001A0,false,Rx,1,8,00,80,00,00,80,00,B8,5B,
222046,000000CE,false,Rx,1,8,00,00,00,00,00,00,00,00,
223416,000000AA,false,Rx,0,8,58,F7,01,00,24,0C,84,00,
229457,000000A8,false,Rx,0,8,97,F8,01,F0,01,F1,0F,02,
231402,000000A9,false,Rx,0,8,AB,18,D8,DF,3D,D8,0F,0C,
231477,000000B6,false,Rx,1,5,0B,0B,80,00,C8,00,00,00,
231938,0000019E,false,Rx,1,8,00,E8,8F,FC,FF,BC,FF,D1,
233410,000000AA,false,Rx,0,8,5D,F8,01,00,28,0C,84,00,
237664,000002F3,false,Rx,0,3,06,FC,F8,00,00,00,00,00,
239464,000000A8,false,Rx,0,8,88,E9,01,F0,01,F1,0F,02,
241398,000000A9,false,Rx,0,8,AC,19,D8,DF,3D,D8,0F,0C,
241534,000001A0,false,Rx,1,8,00,80,00,00,80,00,C8,6B,
242018,000000CE,false,Rx,1,8,00,00,00,00,00,00,00,00,
243408,000000AA,false,Rx,0,8,5E,F9,01,00,28,0C,84,00,
249456,000000A8,false,Rx,0,8,89,EA,01,F0,01,F1,0F,02,
251381,000000A9,false,Rx,0,8,AD,1A,D8,DF,3D,D8,0F,0C,
251466,000000B6,false,Rx,1,5,0C,0C,80,00,C8,00,00,00,
251939,0000019E,false,Rx,1,8,00,E8,8F,FC,FF,BC,FF,D1,
253400,000000AA,false,Rx,0,8,5F,FA,01,00,28,0C,84,00,
253618,000001D0,false,Rx,0,8,5F,FF,6C,D2,B3,53,CD,9B,
259455,000000A8,false,Rx,0,8,8A,EB,01,F0,01,F1,0F,02,
261389,000000A9,false,Rx,0,8,AE,1B,D8,DF,3D,D8,0F,0C,
261521,000001A0,false,Rx,1,8,00,80,00,00,80,00,D8,7B,
261997,000000CE,false,Rx,1,8,00,00,00,00,00,00,00,00,
262156,00000194,false,Rx,1,4,FD,FD,FF,FF,00,00,00,00,
263396,000000AA,false,Rx,0,8,60,FB,01,00,28,0C,84,00,
269430,000000A8,false,Rx,0,8,AB,FC,01,00,02,F1,0F,02,
271404,000000A9,false,Rx,0,8,9F,1C,D8,DF,3D,D8,FF,0B,
271460,000000B6,false,Rx,1,5,0D,0D,80,00,C8,00,00,00,
271933,0000019E,false,Rx,1,8,00,E8,8F,FC,FF,BC,FF,D1,
273354,000001B4,false,Rx,1,8,00,D0,E6,FB,0F,FF,82,FA,
273396,000000AA,false,Rx,0,8,59,FC,01,00,20,0C,84,00,
276962,000001B6,false,Rx,0,8,FF,FF,00,00,11,A8,19,00,
279435,000000A8,false,Rx,0,8,BC,0D,02,00,02,F1,0F,02,
281369,000000A9,false,Rx,0,8,C2,1D,D9,EF,3D,D9,0F,0C,
281511,000001A0,false,Rx,1,8,00,80,00,00,80,00,E8,8B,
281986,000000CE,false,Rx,1,8,00,00,00,00,00,00,00,00,
282469,000001FB,false,Rx,1,2,F8,FF,00,00,00,00,00,00,
283393,000000AA,false,Rx,0,8,6A,0D,02,00,20,0C,84,00,
289426,000000A8,false,Rx,0,8,DD,1E,02,10,02,F1,0F,02,
291361,000000A9,false,Rx,0,8,C3,1E,D9,EF,3D,D9,0F,0C,
291436,000000B6,false,Rx,1,5,0E,0E,80,00,C8,00,00,00,
291909,000004A9,false,Rx,1,8,30,42,FF,FF,FF,FF,FF,FF,
292170,0000019E,false,Rx,1,8,00,E8,8F,FC,FF,BC,FF,D1,
293389,000000AA,false,Rx,0,8,63,0E,02,00,18,0C,84,00,
299420,000000A8,false,Rx,0,8,CF,10,02,10,02,F1,0F,02,
301354,000000A9,false,Rx,0,8,B5,10,D9,EF,3D,D9,0F,0C,
301486,000001A6,false,Rx,1,8,DF,00,E7,00,E1,00,F0,F6,
301590,00000200,false,Rx,0,8,42,81,FC,00,00,00,00,00,
301965,000000CE,false,Rx,1,8,00,00,00,00,00,00,00,00,
302451,000001A0,false,Rx,1,8,00,80,00,00,80,00,08,AA,
303378,000000AA,false,Rx,0,8,65,10,02,00,18,0C,84,00,
309414,000000A8,false,Rx,0,8,B0,01,02,00,02,F1,0F,02,
311358,000000A9,false,Rx,0,8,B6,11,D9,EF,3D,D9,0F,0C,
311433,000000B6,false,Rx,1,5,FF,00,80,00,C8,00,00,00,
311896,0000019E,false,Rx,1,8,00,E8,9F,FC,FF,BC,FF,E1,
313378,000000AA,false,Rx,0,8,6E,11,02,00,20,0C,84,00,
318554,00000130,false,Rx,1,5,45,41,61,8F,75,00,00,00,
319414,000000A8,false,Rx,0,8,B1,02,02,00,02,F1,0F,02,
321348,000000A9,false,Rx,0,8,B7,12,D9,EF,3D,D9,0F,0C,
321504,000001A0,false,Rx,1,8,00,80,00,00,80,00,18,BA,
321980,000000CE,false,Rx,1,8,00,00,00,00,00,00,00,00,
323372,000000AA,false,Rx,0,8,5F,02,02,00,20,0C,84,00,
329412,000000A8,false,Rx,0,8,92,F3,01,F0,01,F1,0F,02,
331347,000000A9,false,Rx,0,8,B8,13,D9,EF,3D,D9,0F,0C,
331422,000000B6,false,Rx,1,5,00,01,80,00,C8,00,00,00,
331885,0000019E,false,Rx,1,8,00,E8,9F,FC,FF,BC,FF,E1,
333378,000000AA,false,Rx,0,8,68,03,02,00,28,0C,84,00,
339417,000000A8,false,Rx,0,8,93,F4,01,F0,01,F1,0F,02,
341341,000000A9,false,Rx,0,8,B9,14,D9,EF,3D,D9,0F,0C,
341483,000001A0,false,Rx,1,8,00,80,00,00,80,00,28,CA,
341949,000000CE,false,Rx,1,8,00,00,00,00,00,00,00,00,
343361,000000AA,false,Rx,0,8,59,F4,01,00,28,0C,84,00,
349412,000000A8,false,Rx,0,8,B4,05,02,00,02,F1,0F,02,
351347,000000A9,false,Rx,0,8,BA,15,D9,EF,3D,D9,0F,0C,
351402,000000B6,false,Rx,1,5,02,02,80,00,C8,00,00,00,
351564,000001D0,false,Rx,0,8,5F,FF,6D,D2,C7,53,CD,9B,
351869,0000019E,false,Rx,1,8,00,E8,9F,FC,FF,BC,FF,E1,
353364,000000AA,false,Rx,0,8,4E,F5,01,00,1C,0C,84,00,
356275,000001B6,false,Rx,0,8,FF,FF,00,00,11,A8,1B,00,
359396,000000A8,false,Rx,0,8,C5,06,02,10,02,F1,0F,02,
361331,000000A9,false,Rx,0,8,BB,16,D9,EF,3D,D9,0F,0C,
361463,000001A0,false,Rx,1,8,00,80,00,00,80,00,38,DA,
361939,000000CE,false,Rx,1,8,00,00,00,00,00,00,00,00,
363350,000000AA,false,Rx,0,8,6F,16,02,00,1C,0C,84,00,
369391,000000A8,false,Rx,0,8,D6,17,02,10,02,F1,0F,02,
371335,000000A9,false,Rx,0,8,BC,17,D9,EF,3D,D9,0F,0C,
371390,000000B6,false,Rx,1,5,03,03,80,00,C8,00,00,00,
371853,0000019E,false,Rx,1,8,00,E8,9F,FC,FF,BC,FF,E1,
373286,000001B4,false,Rx,1,8,00,D0,E6,FC,0F,FF,82,FB,
373358,000000AA,false,Rx,0,8,6C,17,02,00,18,0C,84,00,
379392,000000A8,false,Rx,0,8,B7,08,02,00,02,F1,0F,02,
381326,000000A9,false,Rx,0,8,9B,18,D8,DF,3D,D8,FF,0B,
381457,000001A0,false,Rx,1,8,00,80,00,00,80,00,48,EA,
381945,000000CE,false,Rx,1,8,00,00,00,00,00,00,00,00,
382307,000004B0,false,Rx,1,8,00,42,FD,FF,FF,FF,FF,FF,
383345,000000AA,false,Rx,0,8,5D,08,02,00,18,0C,84,00,
389388,000000A8,false,Rx,0,8,98,F9,01,F0,01,F1,0F,02,
391321,000000A9,false,Rx,0,8,9C,19,D8,DF,3D,D8,FF,0B,
391387,000000B6,false,Rx,1,5,04,04,80,00,C8,00,00,00,
391850,0000019E,false,Rx,1,8,00,E8,9F,FC,FF,BC,FF,E1,
393343,000000AA,false,Rx,0,8,6A,09,02,00,24,0C,84,00,
399382,000000A8,false,Rx,0,8,99,FA,01,F0,01,F1,0F,02,
401325,000000A9,false,Rx,0,8,9B,1A,D7,DF,3D,D7,FF,0B,
401431,000001A6,false,Rx,1,8,DF,00,E7,00,E1,00,80,F8,
401915,000000CE,false,Rx,1,8,00,00,00,00,00,00,00,00,
402186,000001A0,false,Rx,1,8,00,80,00,00,80,00,58,FA,
403334,000000AA,false,Rx,0,8,5B,FA,01,00,24,0C,84,00,
409376,000000A8,false,Rx,0,8,7A,EB,01,E0,01,F1,0F,02,
411319,000000A9,false,Rx,0,8,9C,1B,D7,DF,3D,D7,FF,0B,
411364,000000B6,false,Rx,1,5,05,05,80,00,C8,00,00,00,
411837,0000019E,false,Rx,1,8,00,E8,9F,FC,FF,BC,FF,E1,
413339,000000AA,false,Rx,0,8,64,FB,01,00,2C,0C,84,00,
418597,00000130,false,Rx,1,5,45,41,61,8F,86,00,00,00,
419377,000000A8,false,Rx,0,8,7B,EC,01,E0,01,F1,0F,02,
421320,000000A9,false,Rx,0,8,9D,1C,D7,DF,3D,D7,FF,0B,
421445,000001A0,false,Rx,1,8,00,80,00,00,80,00,68,0B,
421931,000000CE,false,Rx,1,8,00,00,00,00,00,00,00,00,
423323,000000AA,false,Rx,0,8,55,EC,01,00,2C,0C,84,00,
429365,000000A8,false,Rx,0,8,7C,ED,01,E0,01,F1,0F,02,
429996,00000135,false,Rx,1,2,F5,FF,00,00,00,00,00,00,
431315,000000A9,false,Rx,0,8,9E,1D,D7,DF,3D,D7,FF,0B,
431360,000000B6,false,Rx,1,5,06,06,80,00,C8,00,00,00,
431824,0000019E,false,Rx,1,8,00,E8,9F,FC,FF,BC,FF,E1,
433326,000000AA,false,Rx,0,8,52,ED,01,00,28,0C,84,00,
436388,000001B6,false,Rx,0,8,FF,FF,00,00,12,A8,1B,00,
439368,000000A8,false,Rx,0,8,7D,EE,01,E0,01,F1,0F,02,
441311,000000A9,false,Rx,0,8,9F,1E,D7,DF,3D,D7,FF,0B,
441407,000001A0,false,Rx,1,8,00,80,00,00,80,00,78,1B,
441901,000000CE,false,Rx,1,8,00,00,00,00,00,00,00,00,
443323,000000AA,false,Rx,0,8,4F,EE,01,00,24,0C,84,00,
449372,000000A8,false,Rx,0,8,7F,E0,01,F0,01,F1,0F,02,
451295,000000A9,false,Rx,0,8,91,10,D7,DF,3D,D7,FF,0B,
451340,000000B6,false,Rx,1,5,07,07,80,00,C8,00,00,00,
451522,000001D0,false,Rx,0,8,5F,FF,6D,D2,DB,53,CD,9B,
451816,0000019E,false,Rx,1,8,00,E8,9F,FC,FF,BC,FF,E1,
453323,000000AA,false,Rx,0,8,41,E0,01,00,24,0C,84,00,
459356,000000A8,false,Rx,0,8,80,E1,01,F0,01,F1,0F,02,
460098,000002F1,false,Rx,1,3,EC,FB,FC,00,00,00,00,00,
461295,000000A9,false,Rx,0,8,92,11,D7,DF,3D,D7,FF,0B,
461401,000001A0,false,Rx,1,8,00,80,00,00,80,00,88,2B,
461886,000000CE,false,Rx,1,8,00,00,00,00,00,00,00,00,
462044,00000194,false,Rx,1,4,FE,FE,FF,FF,00,00,00,00,
463307,000000AA,false,Rx,0,8,56,F1,01,00,28,0C,84,00,
465022,00000480,false,Rx,1,8,02,42,FD,01,FF,FF,FF,FF,
469350,000000A8,false,Rx,0,8,71,E2,01,E0,01,F1,0F,02,
471293,000000A9,false,Rx,0,8,93,12,D7,DF,3D,D7,FF,0B,
471328,000000B6,false,Rx,1,5,08,08,80,00,C8,00,00,00,
471801,0000019E,false,Rx,1,8,00,E8,9F,FC,FF,BC,FF,E1,
473313,000000AA,false,Rx,0,8,57,F2,01,00,28,0C,84,00,
473378,000001B4,false,Rx,1,8,00,D0,E6,FD,0F,FF,82,FC,
479351,000000A8,false,Rx,0,8,52,D3,01,D0,01,F1,0F,02,
481383,000000A9,false,Rx,0,8,74,13,D7,CF,3D,D7,EF,0B,
481412,000001A0,false,Rx,1,8,00,80,00,00,80,00,98,3B,
481662,000000CE,false,Rx,1,8,00,00,00,00,00,00,00,00,
482723,000001FB,false,Rx,1,2,F9,FF,00,00,00,00,00,00,
483305,000000AA,false,Rx,0,8,3C,D3,01,00,2C,0C,84,00,
489335,000000A8,false,Rx,0,8,53,D4,01,D0,01,F1,0F,02,
491278,000000A9,false,Rx,0,8,75,14,D7,CF,3D,D7,EF,0B,
491333,000000B6,false,Rx,1,5,09,09,80,00,C8,00,00,00,
491796,0000019E,false,Rx,1,8,00,E8,9F,FC,FF,BC,FF,E1,
493297,000000AA,false,Rx,0,8,3D,D4,01,00,2C,0C,84,00,
499337,000000A8,false,Rx,0,8,54,D5,01,D0,01,F1,0F,02,
501281,000000A9,false,Rx,0,8,76,15,D7,CF,3D,D7,EF,0B,
501367,000001A6,false,Rx,1,8,DF,00,E7,00,E1,00,10,FA,
501851,000000CE,false,Rx,1,8,00,00,00,00,00,00,00,00,
502109,000001A0,false,Rx,1,8,00,80,00,00,80,00,A8,4B,
502752,00000200,false,Rx,0,8,42,81,FC,00,00,00,00,00,
503297,000000AA,false,Rx,0,8,32,D5,01,00,20,0C,84,00,
509330,000000A8,false,Rx,0,8,75,E6,01,E0,01,F1,0F,02,
511280,000000A9,false,Rx,0,8,77,16,D7,CF,3D,D7,EF,0B,
511308,000000B6,false,Rx,1,5,0A,0A,80,00,C8,00,00,00,
511771,0000019E,false,Rx,1,8,00,E8,AF,FC,FF,BC,FF,F1,
511959,00000374,false,Rx,1,5,80,80,80,80,FC,00,00,00,
513293,000000AA,false,Rx,0,8,33,D6,01,00,20,0C,84,00,
519325,000000A8,false,Rx,0,8,76,E7,01,E0,01,F1,0F,02,
519845,00000130,false,Rx,1,5,45,41,61,8F,97,00,00,00,
521276,000000A9,false,Rx,0,8,78,17,D7,CF,3D,D7,EF,0B,
521390,000001A0,false,Rx,1,8,00,80,00,00,80,00,B8,5B,
521866,000000CE,false,Rx,1,8,00,00,00,00,00,00,00,00,
523297,000000AA,false,Rx,0,8,38,E7,01,00,14,0C,84,00,
529320,000000A8,false,Rx,0,8,A7,F8,01,00,02,F1,0F,02,
531270,000000A9,false,Rx,0,8,79,18,D7,CF,3D,D7,EF,0B,
531299,000000B6,false,Rx,1,5,0B,0B,80,00,C8,00,00,00,
531752,0000019E,false,Rx,1,8,00,E8,AF,FC,FF,BC,FF,F1,
533294,000000AA,false,Rx,0,8,39,E8,01,00,14,0C,84,00,
539325,000000A8,false,Rx,0,8,B8,09,02,00,02,F1,0F,02,
541258,000000A9,false,Rx,0,8,7A,19,D7,CF,3D,D7,EF,0B,
541343,000001A0,false,Rx,1,8,00,80,00,00,80,00,C8,6B,
541827,000000CE,false,Rx,1,8,00,00,00,00,00,00,00,00,
543279,000000AA,false,Rx,0,8,66,09,02,00,20,0C,84,00,
549319,000000A8,false,Rx,0,8,89,EA,01,F0,01,F1,0F,02,
551252,000000A9,false,Rx,0,8,7B,1A,D7,CF,3D,D7,EF,0B,
551287,000000B6,false,Rx,1,5,0C,0C,80,00,C8,00,00,00,
551735,000001D0,false,Rx,0,8,5F,FF,6E,D2,EF,53,CD,9B,
551764,0000019E,false,Rx,1,8,00,E8,AF,FC,FF,BC,FF,F1,
553269,000000AA,false,Rx,0,8,67,0A,02,00,20,0C,84,00,
555300,00000482,false,Rx,1,8,12,42,FE,01,FF,FF,FF,FF,
559303,000000A8,false,Rx,0,8,6A,EB,01,D0,01,F1,0F,02,
561246,000000A9,false,Rx,0,8,7C,1B,D7,CF,3D,D7,EF,0B,
561332,000001A0,false,Rx,1,8,00,80,00,00,80,00,D8,7B,
561816,000000CE,false,Rx,1,8,00,00,00,00,00,00,00,00,
561944,000001EE,false,Rx,1,2,00,FF,00,00,00,00,00,00,
562113,000002A6,false,Rx,1,2,00,FF,00,00,00,00,00,00,
562285,000001D6,false,Rx,1,2,FF,FF,00,00,00,00,00,00,
563263,000000AA,false,Rx,0,8,54,EB,01,00,2C,0C,84,00,
569298,000000A8,false,Rx,0,8,5B,DC,01,D0,01,F1,0F,02,
571270,000000B6,false,Rx,1,5,0D,0D,80,00,C8,00,00,00,
571305,000000A9,false,Rx,0,8,7D,1C,D7,CF,3D,D7,EF,0B,
571524,0000019E,false,Rx,1,8,00,E8,AF,FC,FF,BC,FF,F1,
573261,000000AA,false,Rx,0,8,55,EC,01,00,2C,0C,84,00,
573306,000001B4,false,Rx,1,8,00,D0,E6,FE,0F,FF,82,FD,
576181,00000308,false,Rx,0,3,DB,D2,F2,00,00,00,00,00,
579301,000000A8,false,Rx,0,8,7C,ED,01,E0,01,F1,0F,02,
581244,000000A9,false,Rx,0,8,7C,1D,D6,CF,3D,D6,EF,0B,
581356,000001A0,false,Rx,1,8,00,80,00,00,80,00,E8,8B,
581822,000000CE,false,Rx,1,8,00,00,00,00,00,00,00,00,
583263,000000AA,false,Rx,0,8,3E,DD,01,00,24,0C,84,00,
589295,000000A8,false,Rx,0,8,7D,EE,01,E0,01,F1,0F,02,
591260,000000B6,false,Rx,1,5,0E,0E,80,00,C8,00,00,00,
591347,000000A9,false,Rx,0,8,7D,1E,D6,CF,3D,D6,EF,0B,
591517,0000019E,false,Rx,1,8,00,E8,AF,FC,FF,BC,FF,F1,
593264,000000AA,false,Rx,0,8,3F,DE,01,00,24,0C,84,00,
599306,000000A8,false,Rx,0,8,6F,E0,01,E0,01,F1,0F,02,
601219,000000A9,false,Rx,0,8,6F,10,D6,CF,3D,D6,EF,0B,
601325,000001A6,false,Rx,1,8,DF,00,E7,00,E1,00,A0,FB,
601799,000000CE,false,Rx,1,8,00,00,00,00,00,00,00,00,
602061,000001A0,false,Rx,1,8,00,80,00,00,80,00,08,AA,
603251,000000AA,false,Rx,0,8,3D,E0,01,00,20,0C,84,00,
609282,000000A8,false,Rx,0,8,70,E1,01,E0,01,F1,0F,02,
611232,000000A9,false,Rx,0,8,70,11,D6,CF,3D,D6,EF,0B,
611261,000000B6,false,Rx,1,5,FF,00,80,00,C8,00,00,00,
611714,0000019E,false,Rx,1,8,00,E8,AF,FC,FF,BC,FF,F1,
613256,000000AA,false,Rx,0,8,3E,E1,01,00,20,0C,84,00,
618585,00000130,false,Rx,1,5,45,41,61,8F,B8,00,00,00,
619294,000000A8,false,Rx,0,8,51,D2,01,D0,01,F1,0F,02,
621227,000000A9,false,Rx,0,8,71,12,D6,CF,3D,D6,EF,0B,
621324,000001A0,false,Rx,1,8,00,80,00,00,80,00,18,BA,
621799,000000CE,false,Rx,1,8,00,00,00,00,00,00,00,00,
623241,000000AA,false,Rx,0,8,47,E2,01,00,28,0C,84,00,
624822,0000034F,false,Rx,1,2,FE,FF,00,00,00,00,00,00,
629281,000000A8,false,Rx,0,8,52,D3,01,D0,01,F1,0F,02,
631214,000000A9,false,Rx,0,8,72,13,D6,CF,3D,D6,EF,0B,
631259,000000B6,false,Rx,1,5,00,01,80,00,C8,00,00,00,
631723,0000019E,false,Rx,1,8,00,E8,AF,FC,FF,BC,FF,F1,
633276,000000AA,false,Rx,0,8,48,E3,01,00,28,0C,84,00,
637630,000001B6,false,Rx,0,8,FF,FF,00,00,12,A8,19,00,
639291,000000A8,false,Rx,0,8,33,C4,01,C0,01,F1,0F,02,
641214,000000A9,false,Rx,0,8,73,14,D6,CF,3D,D6,EF,0B,
641289,000001A0,false,Rx,1,8,00,80,00,00,80,00,28,CA,
641763,000000CE,false,Rx,1,8,00,00,00,00,00,00,00,00,
643226,000000AA,false,Rx,0,8,41,D4,01,00,30,0C,84,00,
649275,000000A8,false,Rx,0,8,34,C5,01,C0,01,F1,0F,02,
651216,000000A9,false,Rx,0,8,74,15,D6,CF,3D,D6,EF,0B,
651245,000000B6,false,Rx,1,5,02,02,80,00,C8,00,00,00,
651694,000001D0,false,Rx,0,8,5F,FF,6E,D2,03,54,CD,9B,
651723,0000019E,false,Rx,1,8,00,E8,AF,FC,FF,BC,FF,F1,
652631,00000492,false,Rx,0,8,29,42,FF,FF,FF,FF,FF,FF,
653226,000000AA,false,Rx,0,8,42,D5,01,00,30,0C,84,00,
654824,00000330,false,Rx,1,8,10,32,02,07,0D,00,ED,07,
656920,000002F8,false,Rx,1,8,FD,FD,FD,1C,6F,E6,07,F0,
659138,00000310,false,Rx,1,7,76,18,10,00,00,17,20,00,
659280,000000A8,false,Rx,0,8,55,D6,01,D0,01,F1,0F,02,
661219,000000A9,false,Rx,0,8,75,16,D6,CF,3D,D6,EF,0B,
661325,000001A0,false,Rx,1,8,00,80,00,00,80,00,38,DA,
661798,000000CE,false,Rx,1,8,00,00,00,00,00,00,00,00,
661956,00000194,false,Rx,1,4,F0,F0,FF,FF,00,00,00,00,
663219,000000AA,false,Rx,0,8,2B,C6,01,00,28,0C,84,00,
669259,000000A8,false,Rx,0,8,56,D7,01,D0,01,F1,0F,02,
671201,000000A9,false,Rx,0,8,76,17,D6,CF,3D,D6,EF,0B,
671229,000000B6,false,Rx,1,5,03,03,80,00,C8,00,00,00,
671682,0000019E,false,Rx,1,8,00,E8,AF,FC,FF,BC,FF,F1,
673225,000000AA,false,Rx,0,8,2C,C7,01,00,28,0C,84,00,
673758,000001B4,false,Rx,1,8,00,D0,E6,F0,0F,FF,82,EF,
679268,000000A8,false,Rx,0,8,77,E8,01,E0,01,F1,0F,02,
681201,000000A9,false,Rx,0,8,77,18,D6,CF,3D,D6,EF,0B,
681258,000001A0,false,Rx,1,8,00,80,00,00,80,00,48,EA,
681741,000000CE,false,Rx,1,8,00,00,00,00,00,00,00,00,
682810,000001FB,false,Rx,1,2,FA,FF,00,00,00,00,00,00,
683219,000000AA,false,Rx,0,8,35,D8,01,00,20,0C,84,00,
689250,000000A8,false,Rx,0,8,78,E9,01,E0,01,F1,0F,02,
691189,000000A9,false,Rx,0,8,78,19,D6,CF,3D,D6,EF,0B,
691219,000000B6,false,Rx,1,5,04,04,80,00,C8,00,00,00,
691671,0000019E,false,Rx,1,8,00,E8,AF,FC,FF,BC,FF,F1,
693304,000000AA,false,Rx,0,8,36,D9,01,00,20,0C,84,00,
699254,000000A8,false,Rx,0,8,59,DA,01,D0,01,F1,0F,02,
701198,000000A9,false,Rx,0,8,79,1A,D6,CF,3D,D6,EF,0B,
701243,000001A6,false,Rx,1,8,DF,00,E7,00,E1,00,30,FD,
701426,00000200,false,Rx,0,8,42,81,FC,00,00,00,00,00,
701720,000000CE,false,Rx,1,8,00,00,00,00,00,00,00,00,
702217,000001A0,false,Rx,1,8,00,80,00,00,80,00,58,FA,
703203,000000AA,false,Rx,0,8,4B,EA,01,00,24,0C,84,00,
709237,000000A8,false,Rx,0,8,5A,DB,01,D0,01,F1,0F,02,
711188,000000A9,false,Rx,0,8,7A,1B,D6,CF,3D,D6,EF,0B,
711217,000000B6,false,Rx,1,5,05,05,80,00,C8,00,00,00,
711668,0000019E,false,Rx,1,8,00,E8,BF,FC,FF,BC,FF,01,
713200,000000AA,false,Rx,0,8,4C,EB,01,00,24,0C,84,00,
717837,000001B6,false,Rx,0,8,FF,FF,00,00,13,A8,1B,00,
718570,00000130,false,Rx,1,5,45,41,61,8F,C9,00,00,00,
719253,000000A8,false,Rx,0,8,5B,DC,01,D0,01,F1,0F,02,
721189,000000A9,false,Rx,0,8,7B,1C,D6,CF,3D,D6,EF,0B,
721265,000001A0,false,Rx,1,8,00,80,00,00,80,00,68,0B,
721739,000000CE,false,Rx,1,8,00,00,00,00,00,00,00,00,
723191,000000AA,false,Rx,0,8,3D,DC,01,00,24,0C,84,00,
729236,000000A8,false,Rx,0,8,5C,DD,01,D0,01,F1,0F,02,
731178,000000A9,false,Rx,0,8,7C,1D,D6,CF,3D,D6,EF,0B,
731206,000000B6,false,Rx,1,5,06,06,80,00,C8,00,00,00,
731431,0000019E,false,Rx,1,8,00,E8,BF,FC,FF,BC,FF,01,
733188,000000AA,false,Rx,0,8,36,DD,01,00,1C,0C,84,00,
739239,000000A8,false,Rx,0,8,7D,EE,01,E0,01,F1,0F,02,
741183,000000A9,false,Rx,0,8,7D,1E,D6,CF,3D,D6,EF,0B,
741229,000001A0,false,Rx,1,8,00,80,00,00,80,00,78,1B,
741712,000000CE,false,Rx,1,8,00,00,00,00,00,00,00,00,
743183,000000AA,false,Rx,0,8,47,EE,01,00,1C,0C,84,00,
749315,000000A8,false,Rx,0,8,6F,E0,01,E0,01,F1,0F,02,
751167,000000A9,false,Rx,0,8,6F,10,D6,CF,3D,D6,EF,0B,
751195,000000B6,false,Rx,1,5,07,07,80,00,C8,00,00,00,
751387,000001D0,false,Rx,0,8,5F,FF,60,D2,17,54,CD,9B,
751414,000004A9,false,Rx,1,8,30,42,FF,FF,FF,FF,FF,FF,
751881,0000019E,false,Rx,1,8,00,E8,BF,FC,FF,BC,FF,01,
753185,000000AA,false,Rx,0,8,35,E0,01,00,18,0C,84,00,
759229,000000A8,false,Rx,0,8,90,F1,01,F0,01,F1,0F,02,
761173,000000A9,false,Rx,0,8,60,11,D6,CF,3D,D6,DF,0B,
761218,000001A0,false,Rx,1,8,00,80,00,00,80,00,88,2B,
761701,000000CE,false,Rx,1,8,00,00,00,00,00,00,00,00,
763173,000000AA,false,Rx,0,8,46,F1,01,00,18,0C,84,00,
769213,000000A8,false,Rx,0,8,91,F2,01,F0,01,F1,0F,02,
771156,000000B6,false,Rx,1,5,08,08,80,00,C8,00,00,00,
771190,000000A9,false,Rx,0,8,71,12,D6,CF,3D,D6,EF,0B,
771408,0000019E,false,Rx,1,8,00,E8,BF,FC,FF,BC,FF,01,
773176,000000AA,false,Rx,0,8,4F,F2,01,00,20,0C,84,00,
773281,000001B4,false,Rx,1,8,00,D0,E6,F1,0F,FF,82,F0,
779214,000000A8,false,Rx,0,8,F2,F3,01,50,02,F1,0F,02,
781158,000000A9,false,Rx,0,8,96,13,D8,DF,3D,D8,FF,0B,
781203,000001A0,false,Rx,1,8,00,80,00,00,80,00,98,3B,
781686,000000CE,false,Rx,1,8,00,00,00,00,00,00,00,00,
783158,000000AA,false,Rx,0,8,C2,53,02,02,20,0C,94,00,
783993,000003B0,false,Rx,1,2,FE,FF,00,00,00,00,00,00,
789208,000000A8,false,Rx,0,8,F3,F4,01,50,02,F1,0F,02,
791150,000000A9,false,Rx,0,8,97,14,D8,DF,3D,D8,FF,0B,
791179,000000B6,false,Rx,1,5,09,09,80,00,C8,00,00,00,
791640,0000019E,false,Rx,1,8,00,E8,BF,FC,FF,BC,FF,01,
793162,000000AA,false,Rx,0,8,CD,54,02,04,28,0C,94,00,
797232,000001B6,false,Rx,0,8,FF,FF,00,00,12,A8,19,00,
797376,000003EF,false,Rx,0,2,05,52,00,00,00,00,00,00,
799214,000000A8,false,Rx,0,8,B6,25,02,E0,03,F1,0F,02,
801150,000000A9,false,Rx,0,8,98,15,D8,DF,3D,D8,FF,0B,
801185,000001A6,false,Rx,1,8,DF,00,E7,00,E1,00,C0,FE,
801668,000000CE,false,Rx,1,8,00,00,00,00,00,00,00,00,
801927,000001A0,false,Rx,1,8,00,80,00,00,80,00,A8,4B,
803156,000000AA,false,Rx,0,8,71,F5,03,05,28,0C,94,00,
809300,000000A8,false,Rx,0,8,B7,26,02,E0,03,F1,0F,02,
811131,000000A9,false,Rx,0,8,99,16,D8,DF,3D,D8,FF,0B,
811160,000000B6,false,Rx,1,5,0A,0A,80,00,C8,00,00,00,
811384,0000019E,false,Rx,1,8,00,E8,BF,FC,FF,BC,FF,01,
813152,000000AA,false,Rx,0,8,6C,F6,03,07,20,0C,94,00,
818575,00000130,false,Rx,1,5,45,41,61,8F,DA,00,00,00,
819203,000000A8,false,Rx,0,8,7B,87,03,40,05,F1,0F,02,
821147,000000A9,false,Rx,0,8,9A,17,D8,DF,3D,D8,FF,0B,
821223,000001A0,false,Rx,1,8,00,80,00,00,80,00,B8,5B,
821697,000000CE,false,Rx,1,8,00,00,00,00,00,00,00,00,
823150,000000AA,false,Rx,0,8,40,C7,05,08,20,0C,94,00,
829192,000000A8,false,Rx,0,8,7C,88,03,40,05,F1,0F,02,
831106,000000B6,false,Rx,1,5,0B,0B,80,00,C8,00,00,00,
831148,000000A9,false,Rx,0,8,9B,18,D8,DF,3D,D8,FF,0B,
831366,0000019E,false,Rx,1,8,00,E8,BF,FC,FF,BC,FF,01,
833153,000000AA,false,Rx,0,8,3D,C8,05,08,1C,0C,94,00,
839194,000000A8,false,Rx,0,8,0F,F9,04,60,05,F1,0F,02,
841145,000000A9,false,Rx,0,8,9C,19,D8,DF,3D,D8,FF,0B,
841173,000001A0,false,Rx,1,8,00,80,00,00,80,00,C8,6B,
841646,000000CE,false,Rx,1,8,00,00,00,00,00,00,00,00,
842574,000004B0,false,Rx,1,8,00,42,FD,FF,FF,FF,FF,FF,
842844,000001B5,false,Rx,1,7,00,FF,FF,CF,F8,FF,00,00,
843326,000000AA,false,Rx,0,8,B0,39,06,0A,1C,0C,94,00,
849190,000000A8,false,Rx,0,8,BF,0A,05,00,05,F1,0F,02,
851111,000000A9,false,Rx,0,8,AD,1A,D8,DF,3D,D8,0F,0C,
851140,000000B6,false,Rx,1,5,0C,0C,80,00,C8,00,00,00,
851349,000001D0,false,Rx,0,8,5F,FF,60,D2,30,54,CC,9B,
851370,0000019E,false,Rx,1,8,00,E8,BF,FC,FF,BC,FF,01,
853143,000000AA,false,Rx,0,8,EC,3A,06,0D,54,0C,94,00,
859176,000000A8,false,Rx,0,8,43,FB,04,90,07,F1,0F,02,
861110,000000A9,false,Rx,0,8,AC,1B,D7,DF,3D,D7,0F,0C,
861156,000001A0,false,Rx,1,8,00,80,00,00,80,00,D8,7B,
861639,000000CE,false,Rx,1,8,00,00,00,00,00,00,00,00,
861798,00000194,false,Rx,1,4,F1,F1,FF,FF,00,00,00,00,
863231,000000AA,false,Rx,0,8,10,5B,08,0D,54,0C,94,00,
869173,000000A8,false,Rx,0,8,C4,8C,06,80,06,F1,0F,02,
871094,000000B6,false,Rx,1,5,0D,0D,80,00,C8,00,00,00,
871130,000000A9,false,Rx,0,8,BD,1C,D7,DF,3D,D7,1F,0C,
871337,0000019E,false,Rx,1,8,00,E8,BF,FC,FF,BC,FF,01,
873135,000000AA,false,Rx,0,8,5E,5C,08,0E,A0,0C,94,00,
873350,000001B4,false,Rx,1,8,00,D0,E6,F2,0F,FF,82,F1,
879167,000000A8,false,Rx,0,8,A6,9D,06,50,07,F1,0F,02,
881116,000000A9,false,Rx,0,8,E0,1D,D8,EF,3D,D8,2F,0C,
881145,000001A0,false,Rx,1,8,00,80,00,00,80,00,E8,8B,
881629,000000CE,false,Rx,1,8,00,00,00,00,00,00,00,00,
882668,000001FB,false,Rx,1,2,FB,FF,00,00,00,00,00,00,
883115,000000AA,false,Rx,0,8,B0,AD,08,0F,A0,0C,94,00,
889158,000000A8,false,Rx,0,8,67,DE,06,D0,06,F1,0F,02,
891078,000000B6,false,Rx,1,5,0E,0E,80,00,C8,00,00,00,
891113,000000A9,false,Rx,0,8,F1,1E,D8,EF,3D,D8,3F,0C,
891333,0000019E,false,Rx,1,8,00,E8,BF,FC,FF,BC,FF,01,
893119,000000AA,false,Rx,0,8,F7,AE,08,11,E4,0C,94,00,
899160,000000A8,false,Rx,0,8,7A,C0,06,00,08,F1,0F,02,
901112,000000A9,false,Rx,0,8,E3,10,D8,EF,3D,D8,3F,0C,
901141,000001A6,false,Rx,1,8,DF,00,E7,00,E1,00,50,F0,
901335,00000200,false,Rx,0,8,42,81,FC,00,00,00,00,00,
901382,000000CE,false,Rx,1,8,00,00,00,00,00,00,00,00,
901849,000001A0,false,Rx,1,8,00,80,00,00,80,00,08,AA,
903111,000000AA,false,Rx,0,8,E2,40,09,11,3C,0D,94,00,
909158,000000A8,false,Rx,0,8,1B,31,07,30,07,F1,0F,02,
911078,000000B6,false,Rx,1,5,FF,00,80,00,C8,00,00,00,
911113,000000A9,false,Rx,0,8,F4,11,D8,EF,3D,D8,4F,0C,
911321,0000019E,false,Rx,1,8,00,E8,CF,FC,FF,BC,FF,12,
913109,000000AA,false,Rx,0,8,E3,41,09,11,3C,0D,94,00,
918521,00000130,false,Rx,1,5,45,41,61,8F,EB,00,00,00,
919159,000000A8,false,Rx,0,8,AA,72,06,80,06,F1,0F,02,
921093,000000A9,false,Rx,0,8,14,12,D7,EF,3D,D7,6F,0C,
921139,000001A0,false,Rx,1,8,00,80,00,00,80,00,18,BA,
921625,000000CE,false,Rx,1,8,00,00,00,00,00,00,00,00,
923105,000000AA,false,Rx,0,8,90,82,08,11,A8,0D,94,00,
925061,00000480,false,Rx,1,8,02,42,FD,01,FF,FF,FF,FF,
929148,000000A8,false,Rx,0,8,AB,73,06,80,06,F1,0F,02,
931080,000000A9,false,Rx,0,8,15,13,D7,EF,3D,D7,6F,0C,
931108,000000B6,false,Rx,1,5,00,01,80,00,C8,00,00,00,
931324,0000019E,false,Rx,1,8,00,E8,CF,FC,FF,BC,FF,12,
933110,000000AA,false,Rx,0,8,91,83,08,11,A8,0D,94,00,
937485,000001B6,false,Rx,0,8,FF,FF,00,00,12,A8,11,00,
939156,000000A8,false,Rx,0,8,7B,E4,05,E0,05,F1,0F,02,
941097,000000A9,false,Rx,0,8,24,14,D6,EF,3D,D6,7F,0C,
941126,000001A0,false,Rx,1,8,00,80,00,00,80,00,28,CA,
941601,000000CE,false,Rx,1,8,00,00,00,00,00,00,00,00,
943091,000000AA,false,Rx,0,8,7E,F4,07,11,24,0E,94,00,
949141,000000A8,false,Rx,0,8,7C,E5,05,E0,05,F1,0F,02,
951051,000000B6,false,Rx,1,5,02,02,80,00,C8,00,00,00,
951086,000000A9,false,Rx,0,8,45,15,D6,EF,3D,D6,9F,0C,
951294,0000019E,false,Rx,1,8,00,E8,CF,FC,FF,BC,FF,12,
952426,000001D0,false,Rx,0,8,5F,FF,61,D2,5C,54,CC,9B,
953089,000000AA,false,Rx,0,8,D4,F5,07,12,78,0E,94,00,
959143,000000A8,false,Rx,0,8,BC,66,05,A0,05,F1,0F,02,
961084,000000A9,false,Rx,0,8,34,16,D5,EF,3D,D5,8F,0C,
961113,000001A0,false,Rx,1,8,00,80,00,00,80,00,38,DA,
961588,000000CE,false,Rx,1,8,00,00,00,00,00,00,00,00,
963078,000000AA,false,Rx,0,8,74,96,06,12,78,0E,94,00,
969139,000000A8,false,Rx,0,8,1E,B7,05,B0,05,F1,0F,02,
971023,000000B6,false,Rx,1,5,03,03,80,00,C8,00,00,00,
971064,000000A9,false,Rx,0,8,65,17,D5,EF,3D,D5,BF,0C,
971272,0000019E,false,Rx,1,8,00,E8,CF,FC,FF,BC,FF,12,
973090,000000AA,false,Rx,0,8,CE,97,06,13,D0,0E,94,00,
973583,000001B4,false,Rx,1,8,00,D0,E6,F3,0F,FF,82,F2,
979120,000000A8,false,Rx,0,8,7F,C8,05,00,06,F1,0F,02,
981086,000001A0,false,Rx,1,8,00,80,00,00,80,00,48,EA,
981176,000000A9,false,Rx,0,8,78,18,D6,FF,3D,D6,BF,0C,
981344,000000CE,false,Rx,1,8,00,00,00,00,00,00,00,00,
983075,000000AA,false,Rx,0,8,7D,E8,06,14,2C,0F,94,00,
989115,000000A8,false,Rx,0,8,E0,19,06,10,06,F1,0F,02,
991020,000000B6,false,Rx,1,5,04,04,80,00,C8,00,00,00,
991169,000000A9,false,Rx,0,8,A9,19,D6,FF,3D,D6,EF,0C,
991266,0000019E,false,Rx,1,8,00,E8,CF,FC,FF,BC,FF,12,
993087,000000AA,false,Rx,0,8,7E,E9,06,14,2C,0F,94,00,
999129,000000A8,false,Rx,0,8,82,6A,06,60,06,F1,0F,02,
1001072,000000A9,false,Rx,0,8,C8,1A,D5,FF,3D,D5,0F,0D,
1001100,000001A6,false,Rx,1,8,DF,00,E7,00,E1,00,E0,F1,
1001316,000000CE,false,Rx,1,8,00,00,00,00,00,00,00,00,
1001806,000001A0,false,Rx,1,8,00,80,00,00,80,00,58,FA,
1003075,000000AA,false,Rx,0,8,1D,2A,07,15,88,0F,94,00,
1009117,000000A8,false,Rx,0,8,83,6B,06,60,06,F1,0F,02,
1011002,000000B6,false,Rx,1,5,05,05,80,00,C8,00,00,00,
1011043,000000A9,false,Rx,0,8,C9,1B,D5,FF,3D,D5,0F,0D,
1011252,0000019E,false,Rx,1,8,00,E8,CF,FC,FF,BC,FF,12,
1013069,000000AA,false,Rx,0,8,66,2B,07,15,D0,0F,94,00,
1015311,00000482,false,Rx,1,8,12,42,FE,01,FF,FF,FF,FF,
1017435,000001B6,false,Rx,0,8,FF,FF,00,00,12,A8,0F,00,
1018582,00000130,false,Rx,1,5,45,41,61,8F,FC,00,00,00,
1019122,000000A8,false,Rx,0,8,35,7C,06,00,07,F1,0F,02,
1021065,000000A9,false,Rx,0,8,C8,1C,D4,FF,3D,D4,0F,0D,
1021093,000001A0,false,Rx,1,8,00,80,00,00,80,00,68,0B,
1021568,000000CE,false,Rx,1,8,00,00,00,00,00,00,00,00,
1023171,000000AA,false,Rx,0,8,F8,BC,07,16,D0,0F,94,00,
1029095,000000A8,false,Rx,0,8,A6,FD,06,F0,06,F1,0F,02,
1030990,000000B6,false,Rx,1,5,06,06,80,00,C8,00,00,00,
1031031,000000A9,false,Rx,0,8,E9,1D,D4,FF,3D,D4,2F,0D,
1031240,0000019E,false,Rx,1,8,00,E8,CF,FC,FF,BC,FF,12,
1033057,000000AA,false,Rx,0,8,43,BD,07,17,18,10,94,00,
1039097,000000A8,false,Rx,0,8,38,EE,06,90,07,F1,0F,02,
1041037,000000A9,false,Rx,0,8,EA,1E,D4,FF,3D,D4,2F,0D,
1041066,000001A0,false,Rx,1,8,00,80,00,00,80,00,78,1B,
1041541,000000CE,false,Rx,1,8,00,00,00,00,00,00,00,00,
1043052,000000AA,false,Rx,0,8,3E,5E,08,18,70,10,94,00,
1049102,000000A8,false,Rx,0,8,BA,80,07,80,07,F1,0F,02,
1050977,000000B6,false,Rx,1,5,07,07,80,00,C8,00,00,00,
1051130,000000A9,false,Rx,0,8,DC,10,D4,FF,3D,D4,2F,0D,
1051225,0000019E,false,Rx,1,8,00,E8,CF,FC,FF,BC,FF,12,
1051547,000001D0,false,Rx,0,8,5F,FF,61,D2,8F,54,CC,9B,
1053053,000000AA,false,Rx,0,8,32,50,08,1A,70,10,94,00,
1059095,000000A8,false,Rx,0,8,CC,91,07,80,08,F1,0F,02,
1061037,000000A9,false,Rx,0,8,DB,11,D3,FF,3D,D3,2F,0D,
1061065,000001A0,false,Rx,1,8,00,80,00,00,80,00,88,2B,
1061291,000000CE,false,Rx,1,8,00,00,00,00,00,00,00,00,
1061690,00000194,false,Rx,1,4,F2,F2,FF,FF,00,00,00,00,
1063039,000000AA,false,Rx,0,8,85,41,09,1B,D0,10,94,00,
1069081,000000A8,false,Rx,0,8,6E,52,08,60,08,F1,0F,02,
1070965,000000B6,false,Rx,1,5,08,08,80,00,C8,00,00,00,
1071026,000000A9,false,Rx,0,8,EC,12,D3,FF,3D,D3,3F,0D,
1071214,0000019E,false,Rx,1,8,00,E8,CF,FC,FF,BC,FF,12,
1073042,000000AA,false,Rx,0,8,D7,42,09,1C,20,11,94,00,
1073535,000001B4,false,Rx,1,8,00,D0,E6,F4,0F,FF,82,F3,
1076316,00000308,false,Rx,0,3,EC,D2,F2,00,00,00,00,00,
1079076,000000A8,false,Rx,0,8,10,73,08,E0,08,F1,0F,02,
1081025,000000A9,false,Rx,0,8,40,13,D4,2F,3E,D4,5F,0D,
1081054,000001A0,false,Rx,1,8,00,80,00,00,80,00,98,3B,
1081529,000000CE,false,Rx,1,8,00,00,00,00,00,00,00,00,
1082668,000001FB,false,Rx,1,2,FC,FF,00,00,00,00,00,00,
1083057,000000AA,false,Rx,0,8,AE,C3,09,1D,74,11,94,00,
1089077,000000A8,false,Rx,0,8,81,E4,08,E0,08,F1,0F,02,
1090952,000000B6,false,Rx,1,5,09,09,80,00,C8,00,00,00,
1091013,000000A9,false,Rx,0,8,41,14,D4,2F,3E,D4,5F,0D,
1091201,0000019E,false,Rx,1,8,00,E8,CF,FC,FF,BC,FF,12,
1093059,000000AA,false,Rx,0,8,B0,C4,09,1E,74,11,94,00,
1097250,000001B6,false,Rx,0,8,FF,FF,00,00,12,A8,11,00,
1099073,000000A8,false,Rx,0,8,63,F5,08,B0,09,F1,0F,02,
1101003,000001A6,false,Rx,1,8,DF,00,E7,00,E1,00,70,F3,
1101039,000000A9,false,Rx,0,8,42,15,D4,2F,3E,D4,5F,0D,
1101259,000000CE,false,Rx,1,8,00,00,00,00,00,00,00,00,
1101497,00000200,false,Rx,0,8,42,81,FC,00,00,00,00,00,
1101735,000001A0,false,Rx,1,8,00,80,00,00,80,00,A8,4B,
1103018,000000AA,false,Rx,0,8,E3,85,0A,1F,E4,11,94,00,
1109060,000000A8,false,Rx,0,8,F4,96,09,A0,09,F1,0F,02,
1110944,000000B6,false,Rx,1,5,0A,0A,80,00,C8,00,00,00,
1111005,000000A9,false,Rx,0,8,63,16,D4,2F,3E,D4,7F,0D,
1111193,0000019E,false,Rx,1,8,00,E8,DF,FC,FF,BC,FF,22,
1112164,00000492,false,Rx,0,8,29,42,FF,FF,FF,FF,FF,FF,
1113029,000000AA,false,Rx,0,8,5D,86,0A,1F,5C,12,94,00,
1113697,00000130,false,Rx,1,5,45,41,21,8F,CD,00,00,00,
1118900,00000130,false,Rx,1,5,45,41,21,8F,DE,00,00,00,
1119059,000000A8,false,Rx,0,8,E5,97,09,90,09,F1,0F,02,
1121002,000000A9,false,Rx,0,8,50,17,D2,2F,3E,D2,6F,0D,
1121031,000001A0,false,Rx,1,8,00,80,00,00,80,00,B8,5B,
1121497,000000CE,false,Rx,1,8,00,00,00,00,00,00,00,00,
1123009,000000AA,false,Rx,0,8,9A,67,0A,1F,B8,12,94,00,
1129058,000000A8,false,Rx,0,8,E6,98,09,90,09,F1,0F,02,
1130921,000000B6,false,Rx,1,5,0B,0B,80,00,C8,00,00,00,
1130993,000000A9,false,Rx,0,8,71,18,D2,2F,3E,D2,8F,0D,
1131181,0000019E,false,Rx,1,8,00,E8,DF,FC,FF,BC,FF,22,
1133008,000000AA,false,Rx,0,8,F7,68,0A,1F,14,13,94,00,
1139058,000000A8,false,Rx,0,8,A7,99,09,50,09,F1,0F,02,
1140989,000001A0,false,Rx,1,8,00,80,00,00,80,00,C8,6B,
1141024,000000A9,false,Rx,0,8,50,19,D1,2F,3E,D1,6F,0D,
1141253,000000CE,false,Rx,1,8,00,00,00,00,00,00,00,00,
1143010,000000AA,false,Rx,0,8,09,09,0A,1F,84,13,94,00,
1149162,000000A8,false,Rx,0,8,B8,7A,09,80,09,F1,0F,02,
1150935,000000B6,false,Rx,1,5,0C,0C,80,00,C8,00,00,00,
1150986,000000A9,false,Rx,0,8,81,1A,D1,2F,3E,D1,9F,0D,
1151186,0000019E,false,Rx,1,8,00,E8,DF,FC,FF,BC,FF,22,
1151414,000001D0,false,Rx,0,8,5F,FF,62,D2,D9,54,CC,9B,
1153010,000000AA,false,Rx,0,8,0A,0A,0A,1F,84,13,94,00,
1159050,000000A8,false,Rx,0,8,99,8B,09,50,09,F1,0F,02,
1160983,000001A0,false,Rx,1,8,00,80,00,00,80,00,D8,7B,
1161018,000000A9,false,Rx,0,8,90,1B,D0,2F,3E,D0,AF,0D,
1161238,000000CE,false,Rx,1,8,00,00,00,00,00,00,00,00,
1162994,000000AA,false,Rx,0,8,50,DB,09,20,F8,13,94,00,
1169035,000000A8,false,Rx,0,8,9A,6C,09,70,09,F1,0F,02,
1170899,000000B6,false,Rx,1,5,0D,0D,80,00,C8,00,00,00,
1170971,000000A9,false,Rx,0,8,B1,1C,D0,2F,3E,D0,CF,0D,
1171159,0000019E,false,Rx,1,8,00,E8,DF,FC,FF,BC,FF,22,
1173007,000000AA,false,Rx,0,8,A8,DC,09,1F,50,14,94,00,
1173499,000001B4,false,Rx,1,8,00,D0,E6,F5,0F,FF,82,F4,
1177770,000001B6,false,Rx,0,8,FF,FF,00,00,12,A8,0F,00,
1179047,000000A8,false,Rx,0,8,0B,2D,09,20,09,F1,0F,02,
1180967,000001A0,false,Rx,1,8,00,80,00,00,80,00,E8,8B,
1181003,000000A9,false,Rx,0,8,A0,1D,CF,2F,3E,CF,BF,0D,
1181235,000000CE,false,Rx,1,8,00,00,00,00,00,00,00,00,
1182981,000000AA,false,Rx,0,8,8D,6D,09,1F,A4,14,94,00,
1189025,000000A8,false,Rx,0,8,1C,2E,09,30,09,F1,0F,02,
1190889,000000B6,false,Rx,1,5,0E,0E,80,00,C8,00,00,00,
1190970,000000A9,false,Rx,0,8,C1,1E,CF,2F,3E,CF,DF,0D,
1191148,0000019E,false,Rx,1,8,00,E8,DF,FC,FF,BC,FF,22,
1192986,000000AA,false,Rx,0,8,04,6E,09,20,18,15,94,00,
1199027,000000A8,false,Rx,0,8,DD,10,09,10,09,F1,0F,02,
1200948,000001A6,false,Rx,1,8,DF,00,E7,00,E1,00,00,F5,
1200984,000000A9,false,Rx,0,8,91,10,CE,2F,3E,CE,BF,0D,
1201204,000000CE,false,Rx,1,8,00,00,00,00,00,00,00,00,
1201678,000001A0,false,Rx,1,8,00,80,00,00,80,00,08,AA,
1202978,000000AA,false,Rx,0,8,4E,40,09,20,90,15,94,00,
1209010,000000A8,false,Rx,0,8,DE,11,09,10,09,F1,0F,02,
1210884,000000B6,false,Rx,1,5,FF,00,80,00,C8,00,00,00,
1210955,000000A9,false,Rx,0,8,A2,11,CE,2F,3E,CE,CF,0D,
1211143,000004A9,false,Rx,1,8,30,42,FF,FF,FF,FF,FF,FF,
1211599,0000019E,false,Rx,1,8,00,E8,DF,FC,FF,BC,FF,22,
1212969,000000AA,false,Rx,0,8,9B,41,09,20,DC,15,94,00,
1218576,00000130,false,Rx,1,5,45,41,21,8F,E0,00,00,00,
1219022,000000A8,false,Rx,0,8,6F,02,09,B0,08,F1,0F,02,
1220963,000000A9,false,Rx,0,8,91,12,CD,2F,3E,CD,BF,0D,
1220992,000001A0,false,Rx,1,8,00,80,00,00,80,00,18,BA,
1221221,000000CE,false,Rx,1,8,00,00,00,00,00,00,00,00,
1222970,000000AA,false,Rx,0,8,81,E2,08,21,20,16,94,00,
1229008,000000A8,false,Rx,0,8,60,D3,08,D0,08,F1,0F,02,
1230872,000000B6,false,Rx,1,5,00,01,80,00,C8,00,00,00,
1230953,000000A9,false,Rx,0,8,A2,13,CD,2F,3E,CD,CF,0D,
1231131,0000019E,false,Rx,1,8,00,E8,DF,FC,FF,BC,FF,22,
1232967,000000AA,false,Rx,0,8,D7,E3,08,22,74,16,94,00,
1237433,000002F3,false,Rx,0,3,07,FC,F9,00,00,00,00,00,
1239020,000000A8,false,Rx,0,8,81,C4,08,00,09,F1,0F,02,
1240931,000001A0,false,Rx,1,8,00,80,00,00,80,00,28,CA,
1240966,000000A9,false,Rx,0,8,B1,14,CC,2F,3E,CC,DF,0D,
1241189,000000CE,false,Rx,1,8,00,00,00,00,00,00,00,00,
1242965,000000AA,false,Rx,0,8,61,14,09,22,CC,16,94,00,
1249011,000000A8,false,Rx,0,8,A2,F5,08,F0,08,F1,0F,02,
1250854,000000B6,false,Rx,1,5,02,02,80,00,C8,00,00,00,
1250936,000000A9,false,Rx,0,8,B2,15,CC,2F,3E,CC,DF,0D,
1251114,0000019E,false,Rx,1,8,00,E8,DF,FC,FF,BC,FF,22,
1252337,000001D0,false,Rx,0,8,5F,FF,62,D2,32,55,CC,9B,
1252951,000000AA,false,Rx,0,8,A3,15,09,23,0C,17,94,00,
1257347,000003B3,false,Rx,0,6,11,C8,00,30,00,00,00,00,
1259006,000000A8,false,Rx,0,8,83,E6,08,E0,08,F1,0F,02,
1260938,000000A9,false,Rx,0,8,A1,16,CB,2F,3E,CB,CF,0D,
1260966,000001A0,false,Rx,1,8,00,80,00,00,80,00,38,DA,
1261185,000000CE,false,Rx,1,8,00,00,00,00,00,00,00,00,
1261593,00000194,false,Rx,1,4,F3,F3,FF,FF,00,00,00,00,
1262963,000000AA,false,Rx,0,8,D0,06,09,23,48,17,94,00,
1268979,000000A8,false,Rx,0,8,94,E7,08,F0,08,F1,0F,02,
1270843,000000B6,false,Rx,1,5,03,03,80,00,C8,00,00,00,
1270955,000000A9,false,Rx,0,8,C2,17,CB,2F,3E,CB,EF,0D,
1271092,0000019E,false,Rx,1,8,00,E8,DF,FC,FF,BC,FF,22,
1271460,0000034F,false,Rx,1,2,FD,FF,00,00,00,00,00,00,
1272940,000000AA,false,Rx,0,8,2E,07,09,23,A4,17,94,00,
1273646,000001B4,false,Rx,1,8,00,D0,E6,F6,0F,FF,82,F5,
1277552,000001B6,false,Rx,0,8,FF,FF,00,00,14,A8,0F,00,
1279000,000000A8,false,Rx,0,8,65,D8,08,D0,08,F1,0F,02,
1280931,000000A9,false,Rx,0,8,C1,18,CA,2F,3E,CA,EF,0D,
1280960,000001A0,false,Rx,1,8,00,80,00,00,80,00,48,EA,
1281179,000000CE,false,Rx,1,8,00,00,00,00,00,00,00,00,
1282809,000001FB,false,Rx,1,2,FD,FF,00,00,00,00,00,00,
1282940,000000AA,false,Rx,0,8,7C,F8,08,24,00,18,94,00,
1289081,000000A8,false,Rx,0,8,76,D9,08,E0,08,F1,0F,02,
1290834,000000B6,false,Rx,1,5,04,04,80,00,C8,00,00,00,
1290925,000000A9,false,Rx,0,8,D2,19,CA,2F,3E,CA,FF,0D,
1291098,0000019E,false,Rx,1,8,00,E8,DF,FC,FF,BC,FF,22,
1292936,000000AA,false,Rx,0,8,B4,F9,08,23,38,18,94,00,
1298995,000000A8,false,Rx,0,8,17,DA,08,80,08,F1,0F,02,
1300879,000001A6,false,Rx,1,8,DF,00,E7,00,E2,00,90,F6,
1300931,000000A9,false,Rx,0,8,B1,1A,C9,2F,3E,C9,DF,0D,
1301151,000000CE,false,Rx,1,8,00,00,00,00,00,00,00,00,
1301616,000001A0,false,Rx,1,8,00,80,00,00,80,00,58,FA,
1301870,00000200,false,Rx,0,8,42,81,FC,00,00,00,00,00,
1302652,000004B0,false,Rx,1,8,00,42,FD,FF,FF,FF,FF,FF,
1303155,000000AA,false,Rx,0,8,9A,AA,08,24,6C,18,94,00,
1308969,000000A8,false,Rx,0,8,08,AB,08,A0,08,F1,0F,02,
1310823,000000B6,false,Rx,1,5,05,05,80,00,C8,00,00,00,
1310914,000000A9,false,Rx,0,8,D2,1B,C9,2F,3E,C9,FF,0D,
1311061,0000019E,false,Rx,1,8,00,E8,EF,FC,FF,BC,FF,32,
1312933,000000AA,false,Rx,0,8,DF,AB,08,24,B0,18,94,00,
1318517,00000130,false,Rx,1,5,45,41,21,8F,F1,00,00,00,
1318973,000000A8,false,Rx,0,8,E8,9C,08,90,08,F1,0F,02,
1320906,000001A0,false,Rx,1,8,00,80,00,00,80,00,68,0B,
1320941,000000A9,false,Rx,0,8,C3,1C,C9,1F,3E,C9,FF,0D,
1321173,000000CE,false,Rx,1,8,00,00,00,00,00,00,00,00,
1322929,000000AA,false,Rx,0,8,19,9C,08,24,F8,18,94,00,
1328958,000000A8,false,Rx,0,8,E9,9D,08,90,08,F1,0F,02,
1330812,000000B6,false,Rx,1,5,06,06,80,00,C8,00,00,00,
1330913,000000A9,false,Rx,0,8,D4,1D,C9,1F,3E,C9,0F,0E,
1331050,0000019E,false,Rx,1,8,00,E8,EF,FC,FF,BC,FF,32,
1332931,000000AA,false,Rx,0,8,42,9D,08,24,20,19,94,00,
1338981,000000A8,false,Rx,0,8,8A,6E,08,60,08,F1,0F,02,
1340865,000001A0,false,Rx,1,8,00,80,00,00,80,00,78,1B,
1340917,000000A9,false,Rx,0,8,D5,1E,C9,1F,3E,C9,0F,0E,
1341124,000000CE,false,Rx,1,8,00,00,00,00,00,00,00,00,
1342915,000000AA,false,Rx,0,8,30,5E,08,25,4C,19,94,00,
1348965,000000A8,false,Rx,0,8,7C,60,08,60,08,F1,0F,02,
1350798,000000B6,false,Rx,1,5,07,07,80,00,C8,00,00,00,
1350900,000000A9,false,Rx,0,8,D7,10,C9,1F,3E,C9,1F,0E,
1351037,0000019E,false,Rx,1,8,00,E8,EF,FC,FF,BC,FF,32,
1351318,000001D0,false,Rx,0,8,5F,FF,63,D2,91,55,CC,9B,
1352915,000000AA,false,Rx,0,8,71,50,08,24,9C,19,94,00,
1357716,000001B6,false,Rx,0,8,FF,FF,00,00,14,A8,11,00,
1358963,000000A8,false,Rx,0,8,2D,61,08,10,08,F1,0F,02,
1360848,000001A0,false,Rx,1,8,00,80,00,00,80,00,88,2B,
1360900,000000A9,false,Rx,0,8,E6,11,C8,1F,3E,C8,2F,0E,
1361110,000000CE,false,Rx,1,8,00,00,00,00,00,00,00,00,
1363012,000000AA,false,Rx,0,8,6E,01,08,24,E8,19,94,00,
1368944,000000A8,false,Rx,0,8,FD,22,08,20,08,F1,0F,02,
1370797,000000B6,false,Rx,1,5,08,08,80,00,C8,00,00,00,
1370920,000000A9,false,Rx,0,8,F7,12,C8,1F,3E,C8,3F,0E,
1371036,0000019E,false,Rx,1,8,00,E8,EF,FC,FF,BC,FF,32,
1372907,000000AA,false,Rx,0,8,B2,02,08,23,2C,1A,94,00,
1373401,000001B4,false,Rx,1,8,00,D0,E6,F7,0F,FF,82,F6,
1378949,000000A8,false,Rx,0,8,5E,13,08,90,07,F1,0F,02,
1380836,000001A0,false,Rx,1,8,00,80,00,00,80,00,98,3B,
1380899,000000A9,false,Rx,0,8,D6,13,C7,0F,3E,C7,2F,0E,
1381095,000000CE,false,Rx,1,8,00,00,00,00,00,00,00,00,
1382896,000000AA,false,Rx,0,8,58,73,07,24,60,1A,94,00,
1385096,00000480,false,Rx,1,8,02,42,FD,01,FF,FF,FF,FF,
1388948,000000A8,false,Rx,0,8,1F,B4,07,B0,07,F1,0F,02,
1390772,000000B6,false,Rx,1,5,09,09,80,00,C8,00,00,00,
1390884,000000A9,false,Rx,0,8,E7,14,C7,0F,3E,C7,3F,0E,
1391020,0000019E,false,Rx,1,8,00,E8,EF,FC,FF,BC,FF,32,
1392892,000000AA,false,Rx,0,8,8D,74,07,24,94,1A,94,00,
1398953,000000A8,false,Rx,0,8,10,A5,07,B0,07,F1,0F,02,
1400827,000001A6,false,Rx,1,8,DF,00,E7,00,E2,00,20,F8,
1400880,000000A9,false,Rx,0,8,09,15,C7,1F,3E,C7,4F,0E,
1401086,000000CE,false,Rx,1,8,00,00,00,00,00,00,00,00,
1401565,000001A0,false,Rx,1,8,00,80,00,00,80,00,A8,4B,
1402895,000000AA,false,Rx,0,8,A2,75,07,24,A8,1A,94,00,
1408948,000000A8,false,Rx,0,8,00,A6,07,A0,07,F1,0F,02,
1410761,000000B6,false,Rx,1,5,0A,0A,80,00,C8,00,00,00,
1410874,000000A9,false,Rx,0,8,0A,16,C7,1F,3E,C7,4F,0E,
1411010,0000019E,false,Rx,1,8,00,E8,EF,FC,FF,BC,FF,32,
1412891,000000AA,false,Rx,0,8,C0,76,07,25,C4,1A,94,00,
1418557,00000130,false,Rx,1,5,45,41,21,8F,02,00,00,00,
1419002,000000A8,false,Rx,0,8,22,B7,07,B0,07,F1,0F,02,
1420853,000001A0,false,Rx,1,8,00,80,00,00,80,00,B8,5B,
1420888,000000A9,false,Rx,0,8,0B,17,C7,0F,3E,C7,5F,0E,
1421106,000000CE,false,Rx,1,8,00,00,00,00,00,00,00,00,
1422883,000000AA,false,Rx,0,8,1E,97,07,25,00,1B,94,00,
1428922,000000A8,false,Rx,0,8,23,B8,07,B0,07,F1,0F,02,
1430746,000000B6,false,Rx,1,5,0B,0B,80,00,C8,00,00,00,
1430869,000000A9,false,Rx,0,8,1C,18,C7,0F,3E,C7,6F,0E,
1430985,0000019E,false,Rx,1,8,00,E8,EF,FC,FF,BC,FF,32,
1432988,000000AA,false,Rx,0,8,53,98,07,25,34,1B,94,00,
1437160,000001B6,false,Rx,0,8,FF,FF,00,00,16,A8,0F,00,
1438930,000000A8,false,Rx,0,8,C3,A9,07,60,07,F1,0F,02,
1440806,000001A0,false,Rx,1,8,00,80,00,00,80,00,C8,6B,
1440868,000000A9,false,Rx,0,8,1D,19,C7,0F,3E,C7,6F,0E,
1441066,000000CE,false,Rx,1,8,00,00,00,00,00,00,00,00,
1442877,000000AA,false,Rx,0,8,3C,59,07,25,5C,1B,94,00,
1448923,000000A8,false,Rx,0,8,A4,7A,07,70,07,F1,0F,02,
1450737,000000B6,false,Rx,1,5,0C,0C,80,00,C8,00,00,00,
1450850,000000A9,false,Rx,0,8,1E,1A,C7,0F,3E,C7,6F,0E,
1450985,0000019E,false,Rx,1,8,00,E8,EF,FC,FF,BC,FF,32,
1452231,000001D0,false,Rx,0,8,5F,FF,63,D2,E8,55,CC,9B,
1452865,000000AA,false,Rx,0,8,65,5A,07,25,84,1B,94,00,
1458917,000000A8,false,Rx,0,8,A5,7B,07,70,07,F1,0F,02,
1460793,000001A0,false,Rx,1,8,00,80,00,00,80,00,D8,7B,
1460865,000000A9,false,Rx,0,8,2D,1B,C6,0F,3E,C6,7F,0E,
1461051,000000CE,false,Rx,1,8,00,00,00,00,00,00,00,00,
1461551,00000194,false,Rx,1,4,F4,F4,FF,FF,00,00,00,00,
1462859,000000AA,false,Rx,0,8,62,2B,07,25,B0,1B,94,00,
1468899,000000A8,false,Rx,0,8,66,5C,07,50,07,F1,0F,02,
1470723,000000B6,false,Rx,1,5,0D,0D,80,00,C8,00,00,00,
1470876,000000A9,false,Rx,0,8,2E,1C,C6,0F,3E,C6,7F,0E,
1470961,0000019E,false,Rx,1,8,00,E8,EF,FC,FF,BC,FF,32,
1472178,000002F1,false,Rx,1,3,ED,FC,FC,00,00,00,00,00,
1472859,000000AA,false,Rx,0,8,6F,2C,07,25,BC,1B,94,00,
1473566,000001B4,false,Rx,1,8,00,D0,E6,F8,0F,FF,80,F5,
1475309,00000482,false,Rx,1,8,12,42,FE,01,FF,FF,FF,FF,
1478917,000000A8,false,Rx,0,8,27,3D,07,30,07,F1,0F,02,
1480793,000001A0,false,Rx,1,8,00,80,00,00,80,00,E8,8B,
1480855,000000A9,false,Rx,0,8,3F,1D,C6,0F,3E,C6,8F,0E,
1481051,000000CE,false,Rx,1,8,00,00,00,00,00,00,00,00,
1482852,000000AA,false,Rx,0,8,61,0D,07,26,CC,1B,94,00,
1482887,000001FB,false,Rx,1,2,FE,FF,00,00,00,00,00,00,
1488897,000000A8,false,Rx,0,8,28,3E,07,30,07,F1,0F,02,
1490712,000000B6,false,Rx,1,5,0E,0E,80,00,C8,00,00,00,
1490844,000000A9,false,Rx,0,8,40,1E,C6,0F,3E,C6,8F,0E,
1490949,0000019E,false,Rx,1,8,00,E8,EF,FC,FF,BC,FF,32,
1492851,000000AA,false,Rx,0,8,C6,0E,07,26,30,1C,94,00,
1498911,000000A8,false,Rx,0,8,0A,20,07,30,07,F1,0F,02,
1500758,000001A6,false,Rx,1,8,DF,00,E7,00,E2,00,B0,F9,
1500840,000000A9,false,Rx,0,8,32,10,C6,0F,3E,C6,8F,0E,
1501016,000000CE,false,Rx,1,8,00,00,00,00,00,00,00,00,
1501497,000001A0,false,Rx,1,8,00,80,00,00,80,00,08,AA,
1502078,00000200,false,Rx,0,8,42,81,FC,00,00,00,00,00,
1502844,000000AA,false,Rx,0,8,C3,00,07,25,3C,1C,94,00,
1508888,000000A8,false,Rx,0,8,FA,21,07,20,07,F1,0F,02,
1510703,000000B6,false,Rx,1,5,FF,00,80,00,C8,00,00,00,
1510834,000000A9,false,Rx,0,8,33,11,C6,0F,3E,C6,8F,0E,
1510950,0000019E,false,Rx,1,8,00,E8,0F,FC,FF,BC,FF,51,
1511379,00000374,false,Rx,1,5,80,80,80,80,FC,00,00,00,
1512849,000000AA,false,Rx,0,8,CC,01,07,25,44,1C,94,00,
1517773,000001B6,false,Rx,0,8,FF,FF,00,00,17,A8,0F,00,
1518029,000003B4,false,Rx,0,8,BE,F3,28,FC,FF,FF,FF,FF,
1518636,00000130,false,Rx,1,5,45,41,21,8F,13,00,00,00,
1518888,000000A8,false,Rx,0,8,9B,F2,06,F0,06,F1,0F,02,
1520781,000001A0,false,Rx,1,8,00,80,00,00,80,00,18,BA,
1520833,000000A9,false,Rx,0,8,42,12,C5,0F,3E,C5,9F,0E,
1521031,000000CE,false,Rx,1,8,00,00,00,00,00,00,00,00,
1522832,000000AA,false,Rx,0,8,B1,C2,06,25,68,1C,94,00,
1528875,000000A8,false,Rx,0,8,9C,F3,06,F0,06,F1,0F,02,
1530690,000000B6,false,Rx,1,5,00,01,80,00,C8,00,00,00,
1530821,000000A9,false,Rx,0,8,43,13,C5,0F,3E,C5,9F,0E,
1530937,0000019E,false,Rx,1,8,00,E8,0F,FC,FF,BC,FF,51,
1532957,000000AA,false,Rx,0,8,D7,C3,06,26,8C,1C,94,00,
1538891,000000A8,false,Rx,0,8,9D,E4,06,00,07,F1,0F,02,
1540747,000001A0,false,Rx,1,8,00,80,00,00,80,00,28,CA,
1540829,000000A9,false,Rx,0,8,44,14,C5,0F,3E,C5,9F,0E,
1541005,000000CE,false,Rx,1,8,00,00,00,00,00,00,00,00,
1542837,000000AA,false,Rx,0,8,F3,D4,06,25,98,1C,94,00,
1548877,000000A8,false,Rx,0,8,9E,F5,06,F0,06,F1,0F,02,
1550682,000000B6,false,Rx,1,5,02,02,80,00,C8,00,00,00,
1550814,000000A9,false,Rx,0,8,55,15,C5,0F,3E,C5,AF,0E,
1550929,0000019E,false,Rx,1,8,00,E8,0F,FC,FF,BC,FF,51,
1552134,000001D0,false,Rx,0,8,5F,FF,64,D2,3D,56,CC,9B,
1552819,000000AA,false,Rx,0,8,25,D5,06,25,C8,1C,94,00,
1558862,000000A8,false,Rx,0,8,1F,B6,06,B0,06,F1,0F,02,
1560737,000001A0,false,Rx,1,8,00,80,00,00,80,00,38,DA,
1560799,000000A9,false,Rx,0,8,76,16,C5,0F,3E,C5,CF,0E,
1560995,000000CE,false,Rx,1,8,00,00,00,00,00,00,00,00,
1561516,000001EE,false,Rx,1,2,00,FF,00,00,00,00,00,00,
1561694,000002A6,false,Rx,1,2,00,FF,00,00,00,00,00,00,
1561861,000001D6,false,Rx,1,2,FF,FF,00,00,00,00,00,00,
1562846,000000AA,false,Rx,0,8,01,86,06,25,F4,1C,94,00,
1568859,000000A8,false,Rx,0,8,20,B7,06,B0,06,F1,0F,02,
1570664,000000B6,false,Rx,1,5,03,03,80,00,C8,00,00,00,
1570816,000000A9,false,Rx,0,8,77,17,C5,0F,3E,C5,CF,0E,
1570911,0000019E,false,Rx,1,8,00,E8,0F,FC,FF,BC,FF,51,
1572269,00000492,false,Rx,0,8,29,42,FF,FF,FF,FF,FF,FF,
1572821,000000AA,false,Rx,0,8,07,87,06,25,F8,1C,94,00,
1573378,000001B4,false,Rx,1,8,00,D0,E6,F9,0F,FF,80,F6,
1577272,00000308,false,Rx,0,3,0D,D2,F2,00,00,00,00,00,
1578869,000000A8,false,Rx,0,8,00,B8,06,90,06,F1,0F,02,
1580735,000001A0,false,Rx,1,8,00,80,00,00,80,00,48,EA,
1580797,000000A9,false,Rx,0,8,78,18,C5,0F,3E,C5,CF,0E,
1580995,000000CE,false,Rx,1,8,00,00,00,00,00,00,00,00,
1582816,000000AA,false,Rx,0,8,20,78,06,25,20,1D,94,00,
1588842,000000A8,false,Rx,0,8,F1,99,06,A0,06,F1,0F,02,
1590667,000000B6,false,Rx,1,5,04,04,80,00,C8,00,00,00,
1590799,000000A9,false,Rx,0,8,89,19,C5,0F,3E,C5,DF,0E,
1590924,0000019E,false,Rx,1,8,00,E8,0F,FC,FF,BC,FF,51,
1592805,000000AA,false,Rx,0,8,3C,79,06,24,3C,1D,94,00,
1596844,000001B6,false,Rx,0,8,FF,FF,00,00,17,A8,0F,00,
1598858,000000A8,false,Rx,0,8,62,5A,06,50,06,F1,0F,02,
1600702,000001A6,false,Rx,1,8,DF,00,E8,00,E3,00,40,FB,
1600795,000000A9,false,Rx,0,8,9A,1A,C5,0F,3E,C5,EF,0E,
1600961,000000CE,false,Rx,1,8,00,00,00,00,00,00,00,00,
1601441,000001A0,false,Rx,1,8,00,80,00,00,80,00,58,FA,
1602800,000000AA,false,Rx,0,8,D9,1A,06,25,38,1D,94,00,
1608841,000000A8,false,Rx,0,8,63,5B,06,50,06,F1,0F,02,
1610636,000000B6,false,Rx,1,5,05,05,80,00,C8,00,00,00,
1610778,000000A9,false,Rx,0,8,9B,1B,C5,0F,3E,C5,EF,0E,
1610886,0000019E,false,Rx,1,8,00,E8,0F,FC,FF,BC,FF,51,
1612797,000000AA,false,Rx,0,8,DA,1B,06,25,38,1D,94,00,
1618542,00000130,false,Rx,1,5,45,41,21,8F,24,00,00,00,
1618978,000000A8,false,Rx,0,8,84,4C,06,80,06,F1,0F,02,
1620721,000001A0,false,Rx,1,8,00,80,00,00,80,00,68,0B,
1620793,000000A9,false,Rx,0,8,BC,1C,C5,0F,3E,C5,0F,0F,
1620981,000000CE,false,Rx,1,8,00,00,00,00,00,00,00,00,
1622792,000000AA,false,Rx,0,8,69,5C,06,26,84,1D,94,00,
1628830,000000A8,false,Rx,0,8,A5,7D,06,70,06,F1,0F,02,
1630625,000000B6,false,Rx,1,5,06,06,80,00,C8,00,00,00,
1630777,000000A9,false,Rx,0,8,BD,1D,C5,0F,3E,C5,0F,0F,
1630882,0000019E,false,Rx,1,8,00,E8,0F,FC,FF,BC,FF,51,
1632785,000000AA,false,Rx,0,8,65,5D,06,25,80,1D,94,00,
1638836,000000A8,false,Rx,0,8,66,5E,06,50,06,F1,0F,02,
1640682,000001A0,false,Rx,1,8,00,80,00,00,80,00,78,1B,
1640784,000000A9,false,Rx,0,8,CE,1E,C5,0F,3E,C5,1F,0F,
1640940,000000CE,false,Rx,1,8,00,00,00,00,00,00,00,00,
1642793,000000AA,false,Rx,0,8,43,3E,06,26,7C,1D,94,00,
1648832,000000A8,false,Rx,0,8,58,50,06,50,06,F1,0F,02,
1650616,000000B6,false,Rx,1,5,07,07,80,00,C8,00,00,00,
1650768,000000A9,false,Rx,0,8,C0,10,C5,0F,3E,C5,1F,0F,
1650865,0000019E,false,Rx,1,8,00,E8,0F,FC,FF,BC,FF,51,
1651187,000001D0,false,Rx,0,8,5F,FF,64,D2,91,56,CC,9B,
1652785,000000AA,false,Rx,0,8,45,30,06,26,8C,1D,94,00,
1654491,00000310,false,Rx,1,7,76,19,10,00,00,17,20,00,
1658836,000000A8,false,Rx,0,8,79,41,06,80,06,F1,0F,02,
1660692,000001A0,false,Rx,1,8,00,80,00,00,80,00,88,2B,
1660774,000000A9,false,Rx,0,8,C1,11,C5,0F,3E,C5,1F,0F,
1660951,000000CE,false,Rx,1,8,00,00,00,00,00,00,00,00,
1661563,00000194,false,Rx,1,4,F5,F5,FF,FF,00,00,00,00,
1662771,000000AA,false,Rx,0,8,7E,61,06,26,94,1D,94,00,
1668812,000000A8,false,Rx,0,8,8A,62,06,70,06,F1,0F,02,
1670606,000000B6,false,Rx,1,5,08,08,80,00,C8,00,00,00,
1670788,000000A9,false,Rx,0,8,D2,12,C5,0F,3E,C5,2F,0F,
1670864,000004A9,false,Rx,1,8,30,42,FF,FF,FF,FF,FF,FF,
1671324,0000019E,false,Rx,1,8,00,E8,0F,FC,FF,BC,FF,51,
1672774,000000AA,false,Rx,0,8,73,62,06,26,88,1D,94,00,
1673502,000001B4,false,Rx,1,8,00,D0,E6,FA,0F,FF,80,F7,
1678178,000001B6,false,Rx,0,8,FF,FF,00,00,17,A8,0B,00,
1678827,000000A8,false,Rx,0,8,7B,63,06,60,06,F1,0F,02,
1680663,000001A0,false,Rx,1,8,00,80,00,00,80,00,98,3B,
1680765,000000A9,false,Rx,0,8,04,13,C5,0F,3E,C5,5F,0F,
1680923,000000CE,false,Rx,1,8,00,00,00,00,00,00,00,00,
1682767,000000AA,false,Rx,0,8,98,63,06,26,AC,1D,94,00,
1683160,000001FB,false,Rx,1,2,F0,FF,00,00,00,00,00,00,
1688804,000000A8,false,Rx,0,8,7C,64,06,60,06,F1,0F,02,
1690589,000000B6,false,Rx,1,5,09,09,80,00,C8,00,00,00,
1690751,000000A9,false,Rx,0,8,05,14,C5,0F,3E,C5,5F,0F,
1690838,0000019E,false,Rx,1,8,00,E8,0F,FC,FF,BC,FF,51,
1692801,000000AA,false,Rx,0,8,B6,64,06,27,C8,1D,94,00,
1698817,000000A8,false,Rx,0,8,8D,65,06,70,06,F1,0F,02,
1700652,000001A6,false,Rx,1,8,E0,00,E8,00,E3,00,D0,FC,
1700755,000000A9,false,Rx,0,8,06,15,C5,0F,3E,C5,5F,0F,
1700921,000000CE,false,Rx,1,8,00,00,00,00,00,00,00,00,
1701401,000001A0,false,Rx,1,8,00,80,00,00,80,00,A8,4B,
1702034,00000200,false,Rx,0,8,42,81,FC,00,00,00,00,00,
1702759,000000AA,false,Rx,0,8,B3,75,06,27,B4,1D,94,00,
1708791,000000A8,false,Rx,0,8,9E,76,06,70,06,F1,0F,02,
1710576,000000B6,false,Rx,1,5,0A,0A,80,00,C8,00,00,00,
1710748,000000A9,false,Rx,0,8,07,16,C5,0F,3E,C5,5F,0F,
1710826,0000019E,false,Rx,1,8,00,E8,1F,FC,FF,BC,FF,61,
1712869,000000AA,false,Rx,0,8,C0,76,06,27,C0,1D,94,00,
1718512,00000130,false,Rx,1,5,45,41,21,8F,35,00,00,00,
1718948,000000A8,false,Rx,0,8,9F,77,06,70,06,F1,0F,02,
1720661,000001A0,false,Rx,1,8,00,80,00,00,80,00,B8,5B,
1720753,000000A9,false,Rx,0,8,38,17,C5,0F,3E,C5,8F,0F,
1720921,000000CE,false,Rx,1,8,00,00,00,00,00,00,00,00,
1722753,000000AA,false,Rx,0,8,CD,77,06,27,CC,1D,94,00,
1728821,000000A8,false,Rx,0,8,A0,78,06,70,06,F1,0F,02,
1730564,000000B6,false,Rx,1,5,0B,0B,80,00,C8,00,00,00,
1730726,000000A9,false,Rx,0,8,39,18,C5,0F,3E,C5,8F,0F,
1730803,0000019E,false,Rx,1,8,00,E8,1F,FC,FF,BC,FF,61,
1732757,000000AA,false,Rx,0,8,B6,78,06,27,B4,1D,94,00,
1738795,000000A8,false,Rx,0,8,A1,79,06,70,06,F1,0F,02,
1740619,000001A0,false,Rx,1,8,00,80,00,00,80,00,C8,6B,
1740732,000000A9,false,Rx,0,8,3A,19,C5,0F,3E,C5,8F,0F,
1740878,000000CE,false,Rx,1,8,00,00,00,00,00,00,00,00,
1742741,000000AA,false,Rx,0,8,D7,79,06,27,D4,1D,94,00,
1748782,000000A8,false,Rx,0,8,A2,7A,06,70,06,F1,0F,02,
1750556,000000B6,false,Rx,1,5,0C,0C,80,00,C8,00,00,00,
1750718,000000A9,false,Rx,0,8,3B,1A,C5,0F,3E,C5,8F,0F,
1750805,0000019E,false,Rx,1,8,00,E8,1F,FC,FF,BC,FF,61,
1751495,000001D0,false,Rx,0,8,5F,FF,65,D2,E6,56,CC,9B,
1752736,000000AA,false,Rx,0,8,EC,7A,06,27,E8,1D,94,00,
1757577,000001B6,false,Rx,0,8,FF,FF,00,00,17,A8,0D,00,
1758784,000000A8,false,Rx,0,8,C3,8B,06,80,06,F1,0F,02,
1760607,000001A0,false,Rx,1,8,00,80,00,00,80,00,D8,7B,
1760730,000000A9,false,Rx,0,8,3C,1B,C5,0F,3E,C5,8F,0F,
1760868,000000CE,false,Rx,1,8,00,00,00,00,00,00,00,00,
1762731,000000AA,false,Rx,0,8,03,9B,06,28,DC,1D,94,00,
1762816,000004B0,false,Rx,1,8,00,42,FD,FF,FF,FF,FF,FF,
1768765,000000A8,false,Rx,0,8,C4,8C,06,80,06,F1,0F,02,
1770538,000000B6,false,Rx,1,5,0D,0D,80,00,C8,00,00,00,
1770731,000000A9,false,Rx,0,8,3D,1C,C5,0F,3E,C5,8F,0F,
1770788,0000019E,false,Rx,1,8,00,E8,1F,FC,FF,BC,FF,61,
1772721,000000AA,false,Rx,0,8,07,9C,06,27,E0,1D,94,00,
1773434,000001B4,false,Rx,1,8,04,D0,E6,FB,0F,FF,80,FC,
1778771,000000A8,false,Rx,0,8,D5,8D,06,90,06,F1,0F,02,
1780596,000001A0,false,Rx,1,8,00,80,00,00,80,00,E8,8B,
1780719,000000A9,false,Rx,0,8,5E,1D,C5,0F,3E,C5,AF,0F,
1780855,000000CE,false,Rx,1,8,00,00,00,00,00,00,00,00,
1782051,000002F6,false,Rx,1,2,00,F5,00,00,00,00,00,00,
1782724,000000AA,false,Rx,0,8,14,9D,06,27,EC,1D,94,00,
1783985,000003B0,false,Rx,1,2,FE,FF,00,00,00,00,00,00,
1788755,000000A8,false,Rx,0,8,D6,8E,06,90,06,F1,0F,02,
1790559,000000B6,false,Rx,1,5,0E,0E,80,00,C8,00,00,00,
1790700,000000A9,false,Rx,0,8,5F,1E,C5,0F,3E,C5,AF,0F,
1790798,0000019E,false,Rx,1,8,00,E8,1F,FC,FF,BC,FF,61,
1792731,000000AA,false,Rx,0,8,05,9E,06,27,DC,1D,94,00,
1796899,000003EF,false,Rx,0,2,05,86,00,00,00,00,00,00,
1798771,000000A8,false,Rx,0,8,D8,90,06,90,06,F1,0F,02,
1800586,000001A6,false,Rx,1,8,E0,00,E9,00,E4,00,60,FE,
1800708,000000A9,false,Rx,0,8,61,10,C5,0F,3E,C5,BF,0F,
1800846,000000CE,false,Rx,1,8,00,00,00,00,00,00,00,00,
1801327,000001A0,false,Rx,1,8,00,80,00,00,80,00,08,AA,
1802717,000000AA,false,Rx,0,8,EA,90,06,27,D0,1D,94,00,
1808857,000000A8,false,Rx,0,8,D9,91,06,90,06,F1,0F,02,
1810539,000000B6,false,Rx,1,5,FF,00,80,00,C8,00,00,00,
1810691,000000A9,false,Rx,0,8,62,11,C5,0F,3E,C5,BF,0F,
1810789,0000019E,false,Rx,1,8,00,E8,1F,FC,FF,BC,FF,61,
1812711,000000AA,false,Rx,0,8,24,91,06,27,08,1E,94,00,
1818535,00000130,false,Rx,1,5,45,41,21,8F,46,00,00,00,
1818755,000000A8,false,Rx,0,8,CA,A2,06,70,06,F1,0F,02,
1820602,000001A0,false,Rx,1,8,00,80,00,00,80,00,18,BA,
1820694,000000A9,false,Rx,0,8,B7,12,C7,2F,3E,C7,EF,0F,
1820852,000000CE,false,Rx,1,8,00,00,00,00,00,00,00,00,
1822765,000000AA,false,Rx,0,8,09,82,06,27,FC,1D,94,00,
1828752,000000A8,false,Rx,0,8,BB,83,06,80,06,F1,0F,02,
1830516,000000B6,false,Rx,1,5,00,01,80,00,C8,00,00,00,
1830687,000000A9,false,Rx,0,8,B8,13,C7,2F,3E,C7,EF,0F,
1830755,0000019E,false,Rx,1,8,00,E8,1F,FC,FF,BC,FF,61,
1832718,000000AA,false,Rx,0,8,FD,83,06,27,F0,1D,94,00,
1838755,000000A8,false,Rx,0,8,CC,84,06,90,06,F1,0F,02,
1840559,000001A0,false,Rx,1,8,00,80,00,00,80,00,28,CA,
1840691,000000A9,false,Rx,0,8,B9,14,C7,2F,3E,C7,EF,0F,
1840817,000000CE,false,Rx,1,8,00,00,00,00,00,00,00,00,
1842689,000000AA,false,Rx,0,8,27,94,06,27,08,1E,94,00,
1843415,000001B5,false,Rx,1,7,00,FF,FF,CF,F8,FF,00,00,
1845125,00000480,false,Rx,1,8,02,42,FD,01,FF,FF,FF,FF,
1848746,000000A8,false,Rx,0,8,CD,85,06,90,06,F1,0F,02,
1850499,000000B6,false,Rx,1,5,02,02,80,00,C8,00,00,00,
1850671,000000A9,false,Rx,0,8,BA,15,C7,2F,3E,C7,EF,0F,
1850739,0000019E,false,Rx,1,8,00,E8,1F,FC,FF,BC,FF,61,
1852045,000001D0,false,Rx,0,8,5F,FF,65,D2,3B,57,CC,9B,
1852690,000000AA,false,Rx,0,8,19,95,06,28,F8,1D,94,00,
1858750,000000A8,false,Rx,0,8,0F,A6,06,B0,06,F1,0F,02,
1860554,000001A0,false,Rx,1,8,00,80,00,00,80,00,38,DA,
1860696,000000A9,false,Rx,0,8,CB,16,C7,2F,3E,C7,FF,0F,
1860802,000000CE,false,Rx,1,8,00,00,08,00,00,00,00,00,
1861554,00000194,false,Rx,1,4,F6,F6,FF,FF,00,00,00,00,
1862681,000000AA,false,Rx,0,8,29,B6,06,27,E8,1D,94,00,
1868723,000000A8,false,Rx,0,8,20,B7,06,B0,06,F1,0F,02,
1870486,000000B6,false,Rx,1,5,03,03,80,00,C8,00,00,00,
1870699,000000A9,false,Rx,0,8,CC,17,C7,2F,3E,C7,FF,0F,
1870726,0000019E,false,Rx,1,8,00,E8,1F,FC,FF,BC,FF,61,
1872689,000000AA,false,Rx,0,8,4A,B7,06,27,08,1E,94,00,
1873442,000001B4,false,Rx,1,8,00,D0,E6,FC,0F,FF,80,F9,
1877570,000001B6,false,Rx,0,8,FF,FF,00,00,18,A8,0F,00,
1878736,000000A8,false,Rx,0,8,E0,B8,06,70,06,F1,0F,02,
1880540,000001A0,false,Rx,1,8,05,80,00,00,80,00,48,EF,
1880763,000000A9,false,Rx,0,8,CD,18,C7,2F,3E,C7,FF,0F,
1880790,000000CE,false,Rx,1,8,08,00,08,00,00,00,08,00,
1882683,000000AA,false,Rx,0,8,2B,88,06,27,18,1E,94,00,
1883239,000001FB,false,Rx,1,2,F1,FF,00,00,00,00,00,00,
1888716,000000A8,false,Rx,0,8,C1,89,06,80,06,F1,0F,02,
1890480,000000B6,false,Rx,1,5,04,04,80,00,C8,00,00,00,
1890652,000000A9,false,Rx,0,8,DE,19,C7,2F,3E,C7,0F,10,
1890719,0000019E,false,Rx,1,8,00,E8,1F,FC,FF,BC,FF,61,
1892682,000000AA,false,Rx,0,8,20,89,06,27,0C,1E,94,00,
1898720,000000A8,false,Rx,0,8,C2,8A,06,80,06,F1,0F,02,
1900524,000001A6,false,Rx,1,8,E1,00,EA,00,E5,00,F0,FF,
1900737,000000A9,false,Rx,0,8,CF,1A,C7,2F,3E,C7,FF,0F,
1900782,000000CE,false,Rx,1,8,08,00,08,00,00,00,08,00,
1901215,00000200,false,Rx,0,8,42,81,FC,00,00,00,00,00,
1901253,000001A0,false,Rx,1,8,05,80,00,00,80,00,58,FF,
1902669,000000AA,false,Rx,0,8,2D,8A,06,27,18,1E,94,00,
1908703,000000A8,false,Rx,0,8,C3,8B,06,80,06,F1,0F,02,
1910456,000000B6,false,Rx,1,5,05,05,80,00,C8,00,00,00,
1910648,000000A9,false,Rx,0,8,E0,1B,C7,2F,3E,C7,0F,10,
1910705,0000019E,false,Rx,1,8,00,E8,2F,FC,FF,BC,FF,71,
1912668,000000AA,false,Rx,0,8,2E,8B,06,27,18,1E,94,00,
1918546,00000130,false,Rx,1,5,45,41,21,8F,57,00,00,00,
1918713,000000A8,false,Rx,0,8,B4,8C,06,70,06,F1,0F,02,
1920555,000001A0,false,Rx,1,8,05,80,00,00,80,00,68,10,
1920676,000000A9,false,Rx,0,8,B1,1C,C7,2F,3E,C7,DF,0F,
1920804,000000CE,false,Rx,1,8,08,00,08,00,09,00,08,00,
1922664,000000AA,false,Rx,0,8,13,7C,06,27,0C,1E,94,00,
1928700,000000A8,false,Rx,0,8,A5,7D,06,70,06,F1,0F,02,
1930454,000000B6,false,Rx,1,5,06,06,80,00,C8,00,00,00,
1930636,000000A9,false,Rx,0,8,C2,1D,C7,2F,3E,C7,EF,0F,
1930703,0000019E,false,Rx,1,8,00,E8,2F,FC,FF,BC,FF,71,
1932666,000000AA,false,Rx,0,8,34,7D,06,27,2C,1E,94,00,
1935311,00000482,false,Rx,1,8,12,42,FE,01,FF,FF,FF,FF,
1938706,000000A8,false,Rx,0,8,A6,7E,06,70,06,F1,0F,02,
1940499,000001A0,false,Rx,1,8,05,80,00,00,80,00,78,20,
1940662,000000A9,false,Rx,0,8,B3,1E,C7,2F,3E,C7,DF,0F,
1940751,000000CE,false,Rx,1,8,08,00,0E,00,09,00,08,00,
1942763,000000AA,false,Rx,0,8,55,7E,06,27,4C,1E,94,00,
1948700,000000A8,false,Rx,0,8,98,70,06,70,06,F1,0F,02,
1950443,000000B6,false,Rx,1,5,07,07,80,00,C8,00,00,00,
1950692,0000019E,false,Rx,1,8,00,E8,2F,FC,FF,BC,FF,71,
1950884,000000A9,false,Rx,0,8,A5,10,C7,2F,3E,C7,DF,0F,
1952056,000001D0,false,Rx,0,8,5F,FF,66,D2,91,57,CC,9B,
1952651,000000AA,false,Rx,0,8,28,70,06,28,2C,1E,94,00,
1956925,000001B6,false,Rx,0,8,FF,FF,00,00,18,A8,0D,00,
1958697,000000A8,false,Rx,0,8,C9,71,06,A0,06,F1,0F,02,
1960490,000001A0,false,Rx,1,8,07,B0,00,00,80,00,88,62,
1960632,000000A9,false,Rx,0,8,86,11,C7,2F,3E,C7,BF,0F,
1960731,000000CE,false,Rx,1,8,0E,00,0E,00,09,00,0D,00,
1962744,000000AA,false,Rx,0,8,65,A1,06,28,38,1E,94,00,
1968679,000000A8,false,Rx,0,8,DA,92,06,90,06,F1,0F,02,
1970423,000000B6,false,Rx,1,5,08,08,80,00,C8,00,00,00,
1970651,000000A9,false,Rx,0,8,87,12,C7,2F,3E,C7,BF,0F,
1970672,0000019E,false,Rx,1,8,00,E8,2F,FC,FF,BC,FF,71,
1972645,000000AA,false,Rx,0,8,75,A2,06,27,48,1E,94,00,
1973368,000001B4,false,Rx,1,8,04,D0,E6,FD,0F,FF,80,FE,
1978685,000000A8,false,Rx,0,8,9B,93,06,50,06,F1,0F,02,
1980478,000001A0,false,Rx,1,8,09,B0,00,00,80,00,98,74,
1980631,000000A9,false,Rx,0,8,68,13,C7,2F,3E,C7,9F,0F,
1980720,000000CE,false,Rx,1,8,0E,00,0E,00,0F,00,0D,00,
1982631,000000AA,false,Rx,0,8,1A,63,06,27,2C,1E,94,00,
1988679,000000A8,false,Rx,0,8,7C,64,06,60,06,F1,0F,02,
1990412,000000B6,false,Rx,1,5,09,09,80,00,C8,00,00,00,
1990615,000000A9,false,Rx,0,8,69,14,C7,2F,3E,C7,9F,0F,
1990652,0000019E,false,Rx,1,8,00,E8,2F,FC,FF,BC,FF,71,
1992635,000000AA,false,Rx,0,8,3F,64,06,27,50,1E,94,00,
1998664,000000A8,false,Rx,0,8,7D,65,06,60,06,F1,0F,02,
2000457,000001A6,false,Rx,1,8,E3,00,EB,00,E7,00,80,F1,
2000610,000000A9,false,Rx,0,8,5A,15,C7,2F,3E,C7,8F,0F,
2000699,000000CE,false,Rx,1,8,0E,00,11,00,0F,00,0D,00,
2001178,000001A0,false,Rx,1,8,09,B0,00,00,80,00,A8,84,
2002639,000000AA,false,Rx,0,8,60,65,06,27,70,1E,94,00,
2008669,000000A8,false,Rx,0,8,7E,66,06,60,06,F1,0F,02,
2010393,000000B6,false,Rx,1,5,0A,0A,80,00,C8,00,00,00,
2010606,000000A9,false,Rx,0,8,5B,16,C7,2F,3E,C7,8F,0F,
2010644,0000019E,false,Rx,1,8,00,E8,2F,FC,FF,BC,FF,71,
2012626,000000AA,false,Rx,0,8,51,66,06,27,60,1E,94,00,
2018543,00000130,false,Rx,1,5,45,41,21,8F,78,00,00,00,
2018671,000000A8,false,Rx,0,8,7F,67,06,60,06,F1,0F,02,
2020481,000001A0,false,Rx,1,8,0A,B0,0F,00,80,00,B8,A4,
2020623,000000A9,false,Rx,0,8,4C,17,C7,2F,3E,C7,7F,0F,
2020721,000000CE,false,Rx,1,8,0E,00,11,00,0F,00,12,00,
2022621,000000AA,false,Rx,0,8,42,57,06,27,60,1E,94,00,
2028657,000000A8,false,Rx,0,8,70,58,06,60,06,F1,0F,02,
2030400,000000B6,false,Rx,1,5,0B,0B,80,00,C8,00,00,00,
2030604,000000A9,false,Rx,0,8,4D,18,C7,2F,3E,C7,7F,0F,
2030641,0000019E,false,Rx,1,8,00,E8,2F,FC,FF,BC,FF,71,
2032066,00000492,false,Rx,0,8,29,42,FF,FF,FF,FF,FF,FF,
2032621,000000AA,false,Rx,0,8,53,58,06,27,70,1E,94,00,
2037299,000001B6,false,Rx,0,8,FF,FF,00,00,18,A8,0F,00,
2038657,000000A8,false,Rx,0,8,61,59,06,50,06,F1,0F,02,
2040441,000001A0,false,Rx,1,8,0A,B0,07,00,80,00,C8,AC,
2040615,000000A9,false,Rx,0,8,1C,19,C6,1F,3E,C6,5F,0F,
2040682,000000CE,false,Rx,1,8,11,00,11,00,0F,00,12,00,
2042604,000000AA,false,Rx,0,8,48,59,06,27,64,1E,94,00,
2048648,000000A8,false,Rx,0,8,62,5A,06,50,06,F1,0F,02,
2050381,000000B6,false,Rx,1,5,0C,0C,80,00,C8,00,00,00,
2050595,000000A9,false,Rx,0,8,1D,1A,C6,1F,3E,C6,5F,0F,
2050622,0000019E,false,Rx,1,8,00,E8,2F,FC,FF,BC,FF,71,
2051907,000001D0,false,Rx,0,8,5F,FF,66,D2,E7,57,CC,9B,
2052603,000000AA,false,Rx,0,8,5D,5A,06,27,78,1E,94,00,
2058755,000000A8,false,Rx,0,8,63,5B,06,50,06,F1,0F,02,
2060428,000001A0,false,Rx,1,8,0A,B0,00,00,80,00,D8,B5,
2060602,000000A9,false,Rx,0,8,1E,1B,C6,1F,3E,C6,5F,0F,
2060679,000000CE,false,Rx,1,8,11,00,14,00,11,00,12,00,
2061563,00000194,false,Rx,1,4,F7,F7,FF,FF,00,00,00,00,
2062599,000000AA,false,Rx,0,8,6A,4B,06,27,94,1E,94,00,
2068628,000000A8,false,Rx,0,8,54,4C,06,50,06,F1,0F,02,
2070361,000000B6,false,Rx,1,5,0D,0D,80,00,C8,00,00,00,
2070611,0000019E,false,Rx,1,8,00,E8,2F,FC,FF,BC,FF,71,
2070802,000000A9,false,Rx,0,8,1F,1C,C6,1F,3E,C6,5F,0F,
2072601,000000AA,false,Rx,0,8,5F,4C,06,27,88,1E,94,00,
2073457,000001B4,false,Rx,1,8,0D,D0,E6,FE,0F,FF,80,09,
2076915,00000308,false,Rx,0,3,1E,D2,F2,00,00,00,00,00,
2078645,000000A8,false,Rx,0,8,15,4D,06,10,06,F1,0F,02,
2080429,000001A0,false,Rx,1,8,0C,B0,5D,00,80,00,E8,25,
2080583,000000A9,false,Rx,0,8,10,1D,C6,1F,3E,C6,4F,0F,
2080681,000000CE,false,Rx,1,8,14,00,14,00,11,00,15,00,
2082592,000000AA,false,Rx,0,8,30,1D,06,27,88,1E,94,00,
2083326,000001FB,false,Rx,1,2,F2,FF,00,00,00,00,00,00,
2088628,000000A8,false,Rx,0,8,06,2E,06,20,06,F1,0F,02,
2090351,000000B6,false,Rx,1,5,0E,0E,80,00,C8,00,00,00,
2090581,000000A9,false,Rx,0,8,11,1E,C6,1F,3E,C6,4F,0F,
2090602,0000019E,false,Rx,1,8,00,E8,2F,FC,FF,BC,FF,71,
2092585,000000AA,false,Rx,0,8,41,1E,06,27,98,1E,94,00,
2098633,000000A8,false,Rx,0,8,D7,10,06,10,06,F1,0F,02,
2100406,000001A6,false,Rx,1,8,E4,00,ED,00,E8,00,10,F3,
2100580,000000A9,false,Rx,0,8,F2,10,C6,1F,3E,C6,3F,0F,
2100648,000000CE,false,Rx,1,8,14,00,14,00,11,00,15,00,
2101059,00000200,false,Rx,0,8,42,81,FC,00,00,00,00,00,
2101116,000001A0,false,Rx,1,8,0C,B0,1F,00,80,00,08,06,
2102584,000000AA,false,Rx,0,8,17,00,06,27,8C,1E,94,00,
2108626,000000A8,false,Rx,0,8,D8,11,06,10,06,F1,0F,02,
2110338,000000B6,false,Rx,1,5,FF,00,80,00,C8,00,00,00,
2110562,000000A9,false,Rx,0,8,F3,11,C6,1F,3E,C6,3F,0F,
2110589,0000019E,false,Rx,1,8,00,E8,3F,FC,FF,BC,FF,81,
2112591,000000AA,false,Rx,0,8,30,01,06,27,A4,1E,94,00,
2116780,000001B6,false,Rx,0,8,FF,FF,00,00,19,A8,0F,00,
2118632,000000A8,false,Rx,0,8,E9,12,06,20,06,F1,0F,02,
2119557,00000130,false,Rx,1,5,45,41,21,8F,89,00,00,00,
2120414,000001A0,false,Rx,1,8,0D,B0,00,00,80,00,18,F7,
2120568,000000A9,false,Rx,0,8,05,12,C6,1F,3E,C6,4F,0F,
2120665,000000CE,false,Rx,1,8,14,00,16,00,14,00,16,00,
2122569,000000AA,false,Rx,0,8,59,12,06,27,BC,1E,94,00,
2128616,000000A8,false,Rx,0,8,EA,13,06,20,06,F1,0F,02,
2130329,000000B6,false,Rx,1,5,00,01,80,00,C8,00,00,00,
2130552,000000A9,false,Rx,0,8,06,13,C6,1F,3E,C6,4F,0F,
2130579,000004A9,false,Rx,1,8,30,42,FF,FF,FF,FF,FF,FF,
2131057,0000019E,false,Rx,1,8,00,E8,3F,FC,FF,BC,FF,81,
2132579,000000AA,false,Rx,0,8,4A,13,06,27,AC,1E,94,00,
2138621,000000A8,false,Rx,0,8,CB,04,06,10,06,F1,0F,02,
2140394,000001A0,false,Rx,1,8,0D,B0,2E,00,80,00,28,36,
2140568,000000A9,false,Rx,0,8,D6,14,C6,1F,3E,C6,1F,0F,
2140635,000000CE,false,Rx,1,8,16,00,16,00,14,00,16,00,
2142567,000000AA,false,Rx,0,8,2B,04,06,27,9C,1E,94,00,
2148614,000000A8,false,Rx,0,8,CC,05,06,10,06,F1,0F,02,
2150318,000000B6,false,Rx,1,5,02,02,80,00,C8,00,00,00,
2150570,000000A9,false,Rx,0,8,E7,15,C6,1F,3E,C6,2F,0F,
2150591,0000019E,false,Rx,1,8,00,E8,3F,FC,FF,BC,FF,81,
2151905,000001D0,false,Rx,0,8,5F,FF,67,D2,3C,58,CC,9B,
2152560,000000AA,false,Rx,0,8,43,05,06,26,B4,1E,94,00,
2158610,000000A8,false,Rx,0,8,8D,06,06,D0,05,F1,0F,02,
2160374,000001A0,false,Rx,1,8,0E,B0,00,00,80,00,38,19,
2160558,000000A9,false,Rx,0,8,D8,16,C6,1F,3E,C6,1F,0F,
2160615,000000CE,false,Rx,1,8,16,00,19,00,17,00,16,00,
2162627,000000AA,false,Rx,0,8,F4,C6,05,27,A4,1E,94,00,
2168605,000000A8,false,Rx,0,8,7E,E7,05,E0,05,F1,0F,02,
2170298,000000B6,false,Rx,1,5,03,03,80,00,C8,00,00,00,
2170558,0000019E,false,Rx,1,8,00,E8,3F,FC,FF,BC,FF,81,
2170739,000000A9,false,Rx,0,8,D9,17,C6,1F,3E,C6,1F,0F,
2172558,000000AA,false,Rx,0,8,E8,C7,05,26,98,1E,94,00,
2173385,000001B4,false,Rx,1,8,0C,D0,E6,F0,0F,FF,80,F9,
2178600,000000A8,false,Rx,0,8,7F,D8,05,F0,05,F1,0F,02,
2180365,000001A0,false,Rx,1,8,0F,B0,46,00,80,00,48,70,
2180547,000000A9,false,Rx,0,8,D8,18,C5,1F,3E,C5,1F,0F,
2180605,000000CE,false,Rx,1,8,16,00,19,00,17,00,19,00,
2182537,000000AA,false,Rx,0,8,42,D8,05,26,E0,1E,94,00,
2188696,000000A8,false,Rx,0,8,80,E9,05,E0,05,F1,0F,02,
2190298,000000B6,false,Rx,1,5,04,04,80,00,C8,00,00,00,
2190538,000000A9,false,Rx,0,8,D9,19,C5,1F,3E,C5,1F,0F,
2190559,0000019E,false,Rx,1,8,00,E8,3F,FC,FF,BC,FF,81,
2192541,000000AA,false,Rx,0,8,2E,D9,05,25,CC,1E,94,00,
2193668,00000330,false,Rx,1,8,10,32,02,07,0E,00,ED,07,
2198033,000001B6,false,Rx,0,8,FF,FF,00,00,1A,A8,0F,00,
2198592,000000A8,false,Rx,0,8,21,BA,05,B0,05,F1,0F,02,
2200377,000001A6,false,Rx,1,8,E6,00,EF,00,EA,00,A0,F4,
2200530,000000A9,false,Rx,0,8,AC,1A,C6,1F,3E,C6,EF,0E,
2200617,000000CE,false,Rx,1,8,18,00,19,00,17,00,19,00,
2201095,000001A0,false,Rx,1,8,0F,B0,07,00,80,00,58,41,
2202539,000000AA,false,Rx,0,8,DE,9A,05,25,BC,1E,94,00,
2208578,000000A8,false,Rx,0,8,12,AB,05,B0,05,F1,0F,02,
2210281,000000B6,false,Rx,1,5,05,05,80,00,C8,00,00,00,
2210521,000000A9,false,Rx,0,8,BD,1B,C6,1F,3E,C6,FF,0E,
2210542,0000019E,false,Rx,1,8,00,E8,3F,FC,FF,BC,FF,81,
2212534,000000AA,false,Rx,0,8,F3,9B,05,25,D0,1E,94,00,
2218571,00000130,false,Rx,1,5,45,41,21,8F,9A,00,00,00,
2218611,000000A8,false,Rx,0,8,03,AC,05,A0,05,F1,0F,02,
2220353,000001A0,false,Rx,1,8,10,B0,36,00,80,00,68,81,
2220525,000000A9,false,Rx,0,8,AE,1C,C6,1F,3E,C6,EF,0E,
2220603,000000CE,false,Rx,1,8,18,00,1B,00,19,00,1B,00,
2222528,000000AA,false,Rx,0,8,CE,8C,05,23,BC,1E,94,00,
2223029,000004B0,false,Rx,1,8,00,42,FD,FF,FF,FF,FF,FF,
2228588,000000A8,false,Rx,0,8,04,AD,05,A0,05,F1,0F,02,
2230312,000000B6,false,Rx,1,5,06,06,80,00,C8,00,00,00,
2230514,000000A9,false,Rx,0,8,AF,1D,C6,1F,3E,C6,EF,0E,
2230561,0000019E,false,Rx,1,8,00,E8,3F,FC,FF,BC,FF,81,
2232533,000000AA,false,Rx,0,8,BB,8D,05,23,A8,1E,94,00,
2236671,000002F3,false,Rx,0,3,08,FC,FA,00,00,00,00,00,
2238572,000000A8,false,Rx,0,8,94,6E,05,70,05,F1,0F,02,
2240357,000001A0,false,Rx,1,8,10,B0,27,00,80,00,78,82,
2240596,000000A9,false,Rx,0,8,B0,1E,C6,1F,3E,C6,EF,0E,
2240617,000000CE,false,Rx,1,8,1A,00,1B,00,19,00,1B,00,
2242519,000000AA,false,Rx,0,8,B4,4E,05,23,E0,1E,94,00,
2248576,000000A8,false,Rx,0,8,76,60,05,60,05,F1,0F,02,
2250310,000000B6,false,Rx,1,5,07,07,80,00,C8,00,00,00,
2250502,000000A9,false,Rx,0,8,A2,10,C6,1F,3E,C6,EF,0E,
2250569,0000019E,false,Rx,1,8,00,E8,3F,FC,FF,BC,FF,81,
2251865,000001D0,false,Rx,0,8,5F,FF,67,D2,8D,58,CC,9B,
2252509,000000AA,false,Rx,0,8,92,40,05,23,CC,1E,94,00,
2258568,000000A8,false,Rx,0,8,17,31,05,30,05,F1,0F,02,
2260343,000001A0,false,Rx,1,8,11,B0,1F,00,80,00,88,8B,
2260506,000000A9,false,Rx,0,8,83,11,C6,1F,3E,C6,CF,0E,
2260593,000000CE,false,Rx,1,8,1A,00,1D,00,1B,00,1D,00,
2261568,00000194,false,Rx,1,4,F8,F8,FF,FF,00,00,00,00,
2262503,000000AA,false,Rx,0,8,43,01,05,23,BC,1E,94,00,
2268553,000000A8,false,Rx,0,8,18,32,05,30,05,F1,0F,02,
2270288,000000B6,false,Rx,1,5,08,08,80,00,C8,00,00,00,
2270526,000000A9,false,Rx,0,8,84,12,C6,1F,3E,C6,CF,0E,
2270547,0000019E,false,Rx,1,8,00,E8,3F,FC,FF,BC,FF,81,
2272509,000000AA,false,Rx,0,8,48,02,05,23,C0,1E,94,00,
2273465,000001B4,false,Rx,1,8,0F,D0,E6,F1,0F,FF,80,FD,
2276863,000001B6,false,Rx,0,8,FF,FF,00,00,1A,A8,0D,00,
2278564,000000A8,false,Rx,0,8,09,23,05,30,05,F1,0F,02,
2280299,000001A0,false,Rx,1,8,11,B0,17,00,80,00,98,93,
2280492,000000A9,false,Rx,0,8,85,13,C6,1F,3E,C6,CF,0E,
2280539,000000CE,false,Rx,1,8,1C,00,1D,00,1B,00,1D,00,
2282513,000000AA,false,Rx,0,8,35,03,05,23,AC,1E,94,00,
2283185,000001FB,false,Rx,1,2,F3,FF,00,00,00,00,00,00,
2288538,000000A8,false,Rx,0,8,F9,24,05,20,05,F1,0F,02,
2290242,000000B6,false,Rx,1,5,09,09,80,00,C8,00,00,00,
2290503,000000A9,false,Rx,0,8,86,14,C6,1F,3E,C6,CF,0E,
2290524,0000019E,false,Rx,1,8,00,E8,3F,FC,FF,BC,FF,81,
2292507,000000AA,false,Rx,0,8,22,04,05,23,98,1E,94,00,
2298553,000000A8,false,Rx,0,8,1B,35,05,30,05,F1,0F,02,
2300277,000001A6,false,Rx,1,8,E9,00,F1,00,ED,00,30,F6,
2300490,000000A9,false,Rx,0,8,75,15,C5,1F,3E,C5,BF,0E,
2300527,000000CE,false,Rx,1,8,1C,00,1F,00,1C,00,1F,00,
2300977,00000200,false,Rx,0,8,42,81,FC,00,00,00,00,00,
2300997,000001A0,false,Rx,1,8,12,B0,36,00,80,00,A8,C3,
2302496,000000AA,false,Rx,0,8,4E,15,05,22,B4,1E,94,00,
2305165,00000480,false,Rx,1,8,02,42,FD,01,FF,FF,FF,FF,
2308538,000000A8,false,Rx,0,8,1C,36,05,30,05,F1,0F,02,
2310223,000000B6,false,Rx,1,5,0A,0A,80,00,C8,00,00,00,
2310472,0000019E,false,Rx,1,8,00,E8,4F,FC,FF,BC,FF,91,
2310653,000000A9,false,Rx,0,8,86,16,C5,1F,3E,C5,CF,0E,
2312494,000000AA,false,Rx,0,8,4E,16,05,21,B4,1E,94,00,
2318539,000000A8,false,Rx,0,8,AC,37,05,C0,04,F1,0F,02,
2318568,00000130,false,Rx,1,5,45,41,21,8F,AB,00,00,00,
2320294,000001A0,false,Rx,1,8,12,B0,0F,00,80,00,B8,AC,
2320477,000000A9,false,Rx,0,8,59,17,C6,1F,3E,C6,9F,0E,
2320534,000000CE,false,Rx,1,8,1E,00,21,00,1C,00,1F,00,
2322487,000000AA,false,Rx,0,8,CE,A7,04,21,A4,1E,94,00,
2328523,000000A8,false,Rx,0,8,6D,D8,04,E0,04,F1,0F,02,
2330207,000000B6,false,Rx,1,5,0B,0B,80,00,C8,00,00,00,
2330456,0000019E,false,Rx,1,8,00,E8,4F,FC,FF,BC,FF,91,
2330637,000000A9,false,Rx,0,8,5A,18,C6,1F,3E,C6,9F,0E,
2332488,000000AA,false,Rx,0,8,D2,A8,04,20,A8,1E,94,00,
2338548,000000A8,false,Rx,0,8,3E,D9,04,B0,04,F1,0F,02,
2340253,000001A0,false,Rx,1,8,13,B0,46,00,80,00,C8,F4,
2340466,000000A9,false,Rx,0,8,4B,19,C6,1F,3E,C6,8F,0E,
2340503,000000CE,false,Rx,1,8,1E,00,21,00,1E,00,20,00,
2342476,000000AA,false,Rx,0,8,A2,89,04,1F,98,1E,94,00,
2348522,000000A8,false,Rx,0,8,1F,BA,04,B0,04,F1,0F,02,
2350206,000000B6,false,Rx,1,5,0C,0C,80,00,C8,00,00,00,
2350455,0000019E,false,Rx,1,8,00,E8,4F,FC,FF,BC,FF,91,
2350656,000000A9,false,Rx,0,8,3C,1A,C6,1F,3E,C6,7F,0E,
2351799,000001D0,false,Rx,0,8,5F,FF,68,D2,D9,58,CC,9B,
2352475,000000AA,false,Rx,0,8,8A,8A,04,1E,80,1E,94,00,
2358525,000000A8,false,Rx,0,8,9F,7B,04,70,04,F1,0F,02,
2360270,000001A0,false,Rx,1,8,13,B0,00,00,80,00,D8,BE,
2360463,000000A9,false,Rx,0,8,3B,1B,C5,1F,3E,C5,7F,0E,
2360520,000000CE,false,Rx,1,8,20,00,23,00,1E,00,20,00,
2362474,000000AA,false,Rx,0,8,4F,3B,04,1E,94,1E,94,00,
2368500,000000A8,false,Rx,0,8,90,6C,04,70,04,F1,0F,02,
2370184,000000B6,false,Rx,1,5,0D,0D,80,00,C8,00,00,00,
2370433,0000019E,false,Rx,1,8,00,E8,4F,FC,FF,BC,FF,91,
2370624,000000A9,false,Rx,0,8,3C,1C,C5,1F,3E,C5,7F,0E,
2372475,000000AA,false,Rx,0,8,46,3C,04,1C,8C,1E,94,00,
2373513,000001B4,false,Rx,1,8,15,D0,E6,F2,0F,FF,80,04,
2378517,000000A8,false,Rx,0,8,F0,7D,04,C0,03,F1,0F,02,
2380230,000001A0,false,Rx,1,8,14,B0,36,00,80,00,E8,06,
2380453,000000A9,false,Rx,0,8,2F,1D,C6,1F,3E,C6,6F,0E,
2380480,000000CE,false,Rx,1,8,20,00,23,00,20,00,22,00,
2382454,000000AA,false,Rx,0,8,8D,9D,03,1B,74,1E,94,00,
2388503,000000A8,false,Rx,0,8,91,EE,03,F0,03,F1,0F,02,
2390166,000000B6,false,Rx,1,5,0E,0E,80,00,C8,00,00,00,
2390415,0000019E,false,Rx,1,8,00,E8,4F,FC,FF,BC,FF,91,
2390606,000000A9,false,Rx,0,8,30,1E,C6,1F,3E,C6,6F,0E,
2392456,000000AA,false,Rx,0,8,8D,9E,03,1A,74,1E,94,00,
2395316,00000482,false,Rx,1,8,12,42,FE,01,FF,FF,FF,FF,
2396673,000001B6,false,Rx,0,8,FF,FF,00,00,1A,A8,0B,00,
2398516,000000A8,false,Rx,0,8,13,B0,03,B0,03,F1,0F,02,
2400219,000001A6,false,Rx,1,8,EB,00,F4,00,F0,00,C0,F7,
2400442,000000A9,false,Rx,0,8,22,10,C6,1F,3E,C6,6F,0E,
2400469,000000CE,false,Rx,1,8,21,00,24,00,20,00,24,00,
2400948,000001A0,false,Rx,1,8,15,B0,1F,00,80,00,08,0F,
2402553,000000AA,false,Rx,0,8,33,40,03,1A,78,1E,94,00,
2403619,00000330,false,Rx,1,8,10,32,02,07,0F,00,ED,07,
2404516,000002FA,false,Rx,1,5,FC,08,FF,0F,FF,00,00,00,
2408486,000000A8,false,Rx,0,8,F3,A1,03,A0,03,F1,0F,02,
2410179,000000B6,false,Rx,1,5,FF,00,80,00,C8,00,00,00,
2410438,0000019E,false,Rx,1,8,00,E8,4F,FC,FF,BC,FF,91,
2410619,000000A9,false,Rx,0,8,23,11,C6,1F,3E,C6,6F,0E,
2412450,000000AA,false,Rx,0,8,F4,41,03,17,3C,1E,94,00,
2418499,000000A8,false,Rx,0,8,34,A2,03,E0,02,F1,0F,02,
2418551,00000130,false,Rx,1,5,45,41,21,8F,BC,00,00,00,
2420248,000001A0,false,Rx,1,8,15,B0,17,00,80,00,18,17,
2420441,000000A9,false,Rx,0,8,24,12,C6,1F,3E,C6,6F,0E,
2420498,000000CE,false,Rx,1,8,21,00,24,00,21,00,24,00,
2422444,000000AA,false,Rx,0,8,3F,82,02,15,48,1E,94,00,
2428482,000000A8,false,Rx,0,8,B4,03,03,00,03,F1,0F,02,
2430145,000000B6,false,Rx,1,5,00,01,80,00,C8,00,00,00,
2430393,0000019E,false,Rx,1,8,00,E8,4F,FC,FF,BC,FF,91,
2430584,000000A9,false,Rx,0,8,25,13,C6,1F,3E,C6,6F,0E,
2432445,000000AA,false,Rx,0,8,44,83,02,15,4C,1E,94,00,
2438576,000000A8,false,Rx,0,8,35,04,03,80,02,F1,0F,02,
2440198,000001A0,false,Rx,1,8,16,B0,36,00,80,00,28,47,
2440438,000000A9,false,Rx,0,8,06,14,C6,1F,3E,C6,4F,0E,
2440458,000000CE,false,Rx,1,8,23,00,26,00,21,00,27,00,
2442432,000000AA,false,Rx,0,8,99,14,02,12,14,1E,94,00,
2448479,000000A8,false,Rx,0,8,F5,A5,02,A0,02,F1,0F,02,
2450141,000000B6,false,Rx,1,5,02,02,80,00,C8,00,00,00,
2450390,0000019E,false,Rx,1,8,00,E8,4F,FC,FF,BC,FF,91,
2450581,000000A9,false,Rx,0,8,07,15,C6,1F,3E,C6,4F,0E,
2451785,000001D0,false,Rx,0,8,5F,FF,68,D2,1B,59,CC,9B,
2452420,000000AA,false,Rx,0,8,95,15,02,11,10,1E,94,00,
2458472,000000A8,false,Rx,0,8,53,D6,00,D0,00,F1,0F,02,
2460175,000001A0,false,Rx,1,8,17,B0,27,00,80,00,38,49,
2460427,000000A9,false,Rx,0,8,F7,16,C6,1F,3E,C6,3F,0E,
2460447,000000CE,false,Rx,1,8,24,00,28,00,22,00,28,00,
2461574,00000194,false,Rx,1,4,F9,F9,FF,FF,00,00,00,00,
2462427,000000AA,false,Rx,0,8,4F,D6,00,0F,0C,1E,94,00,
2468456,000000A8,false,Rx,0,8,54,D7,00,D0,00,F1,0F,02,
2470139,000000B6,false,Rx,1,5,03,03,80,00,C8,00,00,00,
2470388,0000019E,false,Rx,1,8,00,E8,4F,FC,FF,BC,FF,91,
2470579,000000A9,false,Rx,0,8,F8,17,C6,1F,3E,C6,3F,0E,
2472419,000000AA,false,Rx,0,8,2E,D7,00,0D,EC,1D,94,00,
2473447,000001B4,false,Rx,1,8,15,D0,E6,F3,0F,FF,80,06,
2476906,000001B6,false,Rx,0,8,FF,FF,00,00,1A,A8,0D,00,
2478467,000000A8,false,Rx,0,8,84,D8,00,00,00,F1,0F,02,
2480169,000001A0,false,Rx,1,8,18,B0,27,00,80,00,48,5A,
2480429,000000CE,false,Rx,1,8,24,00,28,00,24,00,28,00,
2480653,000000A9,false,Rx,0,8,F9,18,C6,1F,3E,C6,3F,0E,
2482413,000000AA,false,Rx,0,8,41,08,00,0C,D0,1D,94,00,
2483197,000001FB,false,Rx,1,2,F4,FF,00,00,00,00,00,00,
2484071,000002F1,false,Rx,1,3,EE,FD,FC,00,00,00,00,00,
2488559,000000A8,false,Rx,0,8,B4,09,00,00,00,F1,0F,02,
2490120,000000B6,false,Rx,1,5,04,04,80,00,C8,00,00,00,
2490380,0000019E,false,Rx,1,8,00,E8,4F,FC,FF,BC,FF,91,
2490563,000000A9,false,Rx,0,8,FA,19,C6,1F,3E,C6,3F,0E,
2492414,000000AA,false,Rx,0,8,37,09,00,09,C8,1D,94,00,
2493438,00000492,false,Rx,0,8,29,42,FF,FF,FF,FF,FF,FF,
2498443,000000A8,false,Rx,0,8,B5,0A,FF,00,FF,F1,0F,02,
2500146,000001A6,false,Rx,1,8,EE,00,F7,00,F3,00,50,F9,
2500398,000000A9,false,Rx,0,8,FD,1A,C7,2F,3E,C7,2F,0E,
2500418,000000CE,false,Rx,1,8,25,00,29,00,24,00,29,00,
2500879,00000200,false,Rx,0,8,42,81,FC,00,00,00,00,00,
2500900,000001A0,false,Rx,1,8,18,B0,27,00,80,00,58,6A,
2502419,000000AA,false,Rx,0,8,07,0A,FF,08,98,1D,94,00,
2508451,000000A8,false,Rx,0,8,B6,0B,FF,00,FF,F1,0F,02,
2510103,000000B6,false,Rx,1,5,05,05,80,00,C8,00,00,00,
2510363,0000019E,false,Rx,1,8,00,E8,5F,FC,FF,BC,FF,A1,
2510552,000000A9,false,Rx,0,8,EE,1B,C7,2F,3E,C7,1F,0E,
2510572,00000374,false,Rx,1,5,80,80,80,80,FC,00,00,00,
2512514,000000AA,false,Rx,0,8,D5,0B,FF,06,68,1D,94,00,
2518454,000000A8,false,Rx,0,8,E6,0C,FF,30,FE,F1,0F,02,
2519712,00000130,false,Rx,1,5,45,41,21,8F,CD,00,00,00,
2520144,000001A0,false,Rx,1,8,18,B0,0F,00,80,00,68,62,
2520404,000000CE,false,Rx,1,8,25,00,2A,00,25,00,2A,00,
2520639,000000A9,false,Rx,0,8,DF,1C,C7,1F,3E,C7,1F,0E,
2522398,000000AA,false,Rx,0,8,C3,3C,FE,04,28,1D,94,00,
2528427,000000A8,false,Rx,0,8,17,3D,FE,30,FE,F1,0F,02,
2530110,000000B6,false,Rx,1,5,06,06,80,00,C8,00,00,00,
2530360,0000019E,false,Rx,1,8,00,E8,5F,FC,FF,BC,FF,A1,
2530551,000000A9,false,Rx,0,8,21,5D,C7,1F,3E,C7,1F,0E,
2532393,000000AA,false,Rx,0,8,7E,3D,FE,02,E4,1C,94,00,
2538453,000000A8,false,Rx,0,8,E5,1E,FD,20,FD,F1,0F,02,
2540146,000001A0,false,Rx,1,8,18,B0,17,00,80,00,78,7A,
2540398,000000A9,false,Rx,0,8,12,5E,C7,1F,3E,C7,0F,0E,
2540418,000000CE,false,Rx,1,8,26,00,2A,00,25,00,2A,00,
2542392,000000AA,false,Rx,0,8,20,2E,FD,00,98,1C,94,00,
2548439,000000A8,false,Rx,0,8,E7,20,FD,20,FD,F1,0F,02,
2550071,000000B6,false,Rx,1,5,07,07,80,00,C8,00,00,00,
2550321,0000019E,false,Rx,1,8,00,E8,5F,FC,FF,BC,FF,A1,
2550512,000000A9,false,Rx,0,8,04,50,C7,1F,3E,C7,0F,0E,
2550979,000001D0,false,Rx,0,8,5F,FF,69,D2,37,59,CC,9D,
2552392,000000AA,false,Rx,0,8,E1,20,FD,00,68,1C,94,00,
2558433,000000A8,false,Rx,0,8,28,11,FD,70,FC,F1,0F,02,
2560115,000001A0,false,Rx,1,8,19,B0,1F,00,80,00,88,93,
2560376,000000CE,false,Rx,1,8,27,00,2B,00,26,00,2B,00,
2560599,000000A9,false,Rx,0,8,05,51,C7,1F,3E,C7,0F,0E,
2561521,000001EE,false,Rx,1,2,00,FF,00,00,00,00,00,00,
2561698,000002A6,false,Rx,1,2,00,FF,00,00,00,00,00,00,
2561876,000001D6,false,Rx,1,2,FF,FF,00,00,00,00,00,00,
2562377,000000AA,false,Rx,0,8,85,71,FC,00,CC,1B,84,00,
2568411,000000A8,false,Rx,0,8,88,72,FC,70,FC,F1,0F,02,
2570052,000000B6,false,Rx,1,5,08,08,80,00,C8,00,00,00,
2570312,0000019E,false,Rx,1,8,00,E8,5F,FC,FF,BC,FF,A1,
2570493,000000A9,false,Rx,0,8,F5,52,C7,1F,3E,C7,FF,0D,
2572374,000000AA,false,Rx,0,8,2E,72,FC,00,74,1B,84,00,
2573412,000001B4,false,Rx,1,8,18,D0,E6,F4,0F,FF,80,0A,
2576334,000001B6,false,Rx,0,8,FF,FF,00,00,19,A8,0B,00,
2576499,00000308,false,Rx,0,3,2F,D2,F2,00,00,00,00,00,
2578419,000000A8,false,Rx,0,8,89,73,FC,70,FC,F1,0F,02,
2579406,000002FC,false,Rx,1,7,81,00,00,FF,FF,FF,FF,00,
2580151,000001A0,false,Rx,1,8,1A,B0,1F,00,80,00,98,A4,
2580364,000000A9,false,Rx,0,8,F6,53,C7,1F,3E,C7,FF,0D,
2580391,000000CE,false,Rx,1,8,27,00,2D,00,27,00,2C,00,
2582367,000000AA,false,Rx,0,8,EE,73,FC,00,34,1B,84,00,
2588405,000000A8,false,Rx,0,8,8A,74,FC,70,FC,F1,0F,02,
2590046,000000B6,false,Rx,1,5,09,09,80,00,C8,00,00,00,
2590306,000004A9,false,Rx,1,8,30,42,FF,FF,FF,FF,FF,FF,
2590488,000000A9,false,Rx,0,8,E7,54,C7,1F,3E,C7,EF,0D,
2590546,0000019E,false,Rx,1,8,00,E8,5F,FC,FF,BC,FF,A1,
2592377,000000AA,false,Rx,0,8,AF,74,FC,00,F4,1A,84,00,
2598409,000000A8,false,Rx,0,8,AB,85,FC,80,FC,F1,0F,02,
2600090,000001A6,false,Rx,1,8,F1,00,FA,00,F7,00,E0,FA,
2600353,000000A9,false,Rx,0,8,FA,55,C8,2F,3E,C8,EF,0D,
2600374,000000CE,false,Rx,1,8,29,00,2E,00,27,00,2C,00,
2600595,000001A0,false,Rx,1,8,1A,B0,17,00,80,00,A8,AC,
2602366,000000AA,false,Rx,0,8,60,85,FC,00,94,1A,84,00,
2603556,00000330,false,Rx,1,8,10,32,02,07,10,00,ED,07,
2608409,000000A8,false,Rx,0,8,AC,86,FC,80,FC,F1,0F,02,
2610050,000000B6,false,Rx,1,5,0A,0A,80,00,C8,00,00,00,
2610311,0000019E,false,Rx,1,8,00,E8,5F,FC,FF,BC,FF,A1,
2610483,000000A9,false,Rx,0,8,DB,56,C8,2F,3E,C8,CF,0D,
2612373,000000AA,false,Rx,0,8,00,86,FC,00,34,1A,84,00,
2618404,000000A8,false,Rx,0,8,AD,87,FC,80,FC,F1,0F,02,
2618556,00000130,false,Rx,1,5,45,41,21,8F,DE,00,00,00,
2620110,000001A0,false,Rx,1,8,1A,B0,36,00,80,00,B8,DB,
2620351,000000A9,false,Rx,0,8,1D,57,C8,2F,3E,C8,0F,0E,
2620372,000000CE,false,Rx,1,8,29,00,2E,00,27,00,2D,00,
2622358,000000AA,false,Rx,0,8,BD,87,FC,00,F0,19,84,00,
2628396,000000A8,false,Rx,0,8,AE,88,FC,80,FC,F1,0F,02,
2630027,000000B6,false,Rx,1,5,0B,0B,80,00,C8,00,00,00,
2630277,0000019E,false,Rx,1,8,00,E8,5F,FC,FF,BC,FF,A1,
2630459,000000A9,false,Rx,0,8,FD,58,C8,2F,3E,C8,EF,0D,
2632349,000000AA,false,Rx,0,8,76,88,FC,00,A8,19,84,00,
2638401,000000A8,false,Rx,0,8,CF,99,FC,90,FC,F1,0F,02,
2640072,000001A0,false,Rx,1,8,1A,B0,17,00,80,00,C8,CC,
2640333,000000CE,false,Rx,1,8,29,00,2F,00,27,00,2D,00,
2640556,000000A9,false,Rx,0,8,41,59,C9,2F,3E,C9,2F,0E,
2642345,000000AA,false,Rx,0,8,27,99,FC,00,48,19,84,00,
2648386,000000A8,false,Rx,0,8,D0,9A,FC,90,FC,F1,0F,02,
2650017,000000B6,false,Rx,1,5,0C,0C,80,00,C8,00,00,00,
2650267,0000019E,false,Rx,1,8,00,E8,5F,FC,FF,BC,FF,A1,
2650459,000000A9,false,Rx,0,8,32,5A,C9,2F,3E,C9,1F,0E,
2650924,000001D0,false,Rx,0,8,5F,FF,69,D2,37,59,CC,9F,
2652466,000000AA,false,Rx,0,8,CB,9A,FC,00,EC,18,84,00,
2654553,00000310,false,Rx,1,7,76,1A,10,00,00,17,20,00,
2656337,000001B6,false,Rx,0,8,FF,FF,00,00,19,A8,0B,00,
2658384,000000A8,false,Rx,0,8,D1,9B,FC,90,FC,F1,0F,02,
2660086,000001A0,false,Rx,1,8,1B,B0,17,00,80,00,D8,DD,
2660339,000000A9,false,Rx,0,8,23,5B,C9,2F,3E,C9,0F,0E,
2660359,000000CE,false,Rx,1,8,2A,00,30,00,27,00,2F,00,
2661576,00000194,false,Rx,1,4,FA,FA,FF,FF,00,00,00,00,
2662339,000000AA,false,Rx,0,8,84,9B,FC,00,A4,18,84,00,
2668368,000000A8,false,Rx,0,8,D2,9C,FC,90,FC,F1,0F,02,
2670010,000000B6,false,Rx,1,5,0D,0D,80,00,C8,00,00,00,
2670260,0000019E,false,Rx,1,8,00,E8,5F,FC,FF,BC,FF,A1,
2670442,000000A9,false,Rx,0,8,84,5C,C9,2F,3E,C9,6F,0E,
2672332,000000AA,false,Rx,0,8,D0,9C,FC,00,F0,17,84,00,
2673451,000001B4,false,Rx,1,8,1A,D0,E6,F5,0F,FF,80,0D,
2678374,000000A8,false,Rx,0,8,D3,9D,FC,90,FC,F1,0F,02,
2680055,000001A0,false,Rx,1,8,1B,B0,17,00,80,00,E8,ED,
2680306,000000CE,false,Rx,1,8,2B,00,31,00,28,00,2F,00,
2680539,000000A9,false,Rx,0,8,65,5D,C9,2F,3E,C9,4F,0E,
2682328,000000AA,false,Rx,0,8,6D,9D,FC,00,8C,17,84,00,
2683164,000004B0,false,Rx,1,8,00,42,FD,FF,FF,FF,FF,FF,
2683342,000001FB,false,Rx,1,2,F5,FF,00,00,00,00,00,00,
2688359,000000A8,false,Rx,0,8,D4,9E,FC,90,FC,F1,0F,02,
2690000,000000B6,false,Rx,1,5,0E,0E,80,00,C8,00,00,00,
2690251,0000019E,false,Rx,1,8,00,E8,5F,FC,FF,BC,FF,A1,
2690433,000000A9,false,Rx,0,8,A6,5E,C9,2F,3E,C9,8F,0E,
2692332,000000AA,false,Rx,0,8,6E,9E,FC,00,8C,17,84,00,
2698372,000000A8,false,Rx,0,8,C6,90,FC,90,FC,F1,0F,02,
2700054,000001A6,false,Rx,1,8,F4,00,FD,00,FB,00,70,FC,
2700307,000000CE,false,Rx,1,8,2B,00,33,00,28,00,30,00,
2700557,000000A9,false,Rx,0,8,78,50,C9,1F,3E,C9,7F,0E,
2700577,000001A0,false,Rx,1,8,1B,B0,1F,00,80,00,08,15,
2701039,00000200,false,Rx,0,8,42,81,FC,00,00,00,00,00,
2702424,000000AA,false,Rx,0,8,18,90,FC,00,44,17,84,00,
2708348,000000A8,false,Rx,0,8,C7,91,FC,90,FC,F1,0F,02,
2709979,000000B6,false,Rx,1,5,FF,00,80,00,C8,00,00,00,
2710240,0000019E,false,Rx,1,8,00,E8,6F,FC,FF,BC,FF,B1,
2710422,000000A9,false,Rx,0,8,F9,51,C9,1F,3E,C9,FF,0E,
2712322,000000AA,false,Rx,0,8,C8,91,FC,00,F4,16,84,00,
2718371,000000A8,false,Rx,0,8,E8,A2,FC,A0,FC,F1,0F,02,
2718533,00000130,false,Rx,1,5,45,41,21,8F,E0,00,00,00,
2720048,000001A0,false,Rx,1,8,1C,B0,3E,00,80,00,18,45,
2720311,000000CE,false,Rx,1,8,2C,00,35,00,29,00,31,00,
2720544,000000A9,false,Rx,0,8,7D,52,CA,1F,3E,CA,7F,0F,
2722313,000000AA,false,Rx,0,8,71,A2,FC,00,8C,16,84,00,
2728343,000000A8,false,Rx,0,8,E9,A3,FC,A0,FC,F1,0F,02,
2729984,000000B6,false,Rx,1,5,00,01,80,00,C8,00,00,00,
2730234,0000019E,false,Rx,1,8,00,E8,6F,FC,FF,BC,FF,B1,
2730426,000000A9,false,Rx,0,8,8E,53,CA,1F,3E,CA,8F,0F,
2732316,000000AA,false,Rx,0,8,0E,A3,FC,00,28,16,84,00,
2736467,000001B6,false,Rx,0,8,FF,FF,00,00,19,A8,0F,00,
2738360,000000A8,false,Rx,0,8,2B,C4,FC,C0,FC,F1,0F,02,
2740021,000001A0,false,Rx,1,8,1D,B0,36,00,80,00,28,4E,
2740273,000000CE,false,Rx,1,8,2D,00,35,00,2B,00,33,00,
2740517,000000A9,false,Rx,0,8,24,54,CC,1F,3E,CC,1F,10,
2742297,000000AA,false,Rx,0,8,E2,C4,FC,00,DC,15,84,00,
2748355,000000A8,false,Rx,0,8,2C,C5,FC,C0,FC,F1,0F,02,
2749946,000000B6,false,Rx,1,5,02,02,80,00,C8,00,00,00,
2750196,0000019E,false,Rx,1,8,00,E8,6F,FC,FF,BC,FF,B1,
2750390,000000A9,false,Rx,0,8,25,55,CC,1F,3E,CC,1F,10,
2750855,000001D0,false,Rx,0,8,5F,FF,6A,D2,37,59,CC,A1,
2752299,000000AA,false,Rx,0,8,8F,C5,FC,00,88,15,84,00,
2758340,000000A8,false,Rx,0,8,6E,66,FD,60,FD,F1,0F,02,
2760002,000001A0,false,Rx,1,8,1D,B0,1F,00,80,00,38,47,
2760264,000000CE,false,Rx,1,8,2E,00,36,00,2B,00,34,00,
2760495,000000A9,false,Rx,0,8,A8,56,CD,1F,3E,CD,9F,10,
2762294,000000AA,false,Rx,0,8,30,D6,FC,00,18,15,84,00,
2765197,00000480,false,Rx,1,8,02,42,FD,01,FF,FF,FF,FF,
2768328,000000A8,false,Rx,0,8,6F,67,FD,60,FD,F1,0F,02,
2769939,000000B6,false,Rx,1,5,03,03,80,00,C8,00,00,00,
2770190,0000019E,false,Rx,1,8,00,E8,6F,FC,FF,BC,FF,B1,
2770373,000000A9,false,Rx,0,8,99,57,CD,1F,3E,CD,8F,10,
2772313,000000AA,false,Rx,0,8,C0,D7,FC,00,A8,14,84,00,
2773431,000001B4,false,Rx,1,8,1C,D0,E6,F6,0F,FF,80,10,
2778333,000000A8,false,Rx,0,8,71,E8,FD,E0,FD,F1,0F,02,
2780005,000001A0,false,Rx,1,8,1E,B0,1F,00,80,00,48,58,
2780257,000000CE,false,Rx,1,8,2E,00,37,00,2C,00,34,00,
2780488,000000A9,false,Rx,0,8,5B,58,CD,0F,3E,CD,5F,11,
2782277,000000AA,false,Rx,0,8,71,D8,FC,00,58,14,84,00,
2783850,000003B0,false,Rx,1,2,FE,FF,00,00,00,00,00,00,
2788318,000000A8,false,Rx,0,8,02,29,FE,30,FE,F1,0F,02,
2789949,000000B6,false,Rx,1,5,04,04,80,00,C8,00,00,00,
2790201,0000019E,false,Rx,1,8,00,E8,6F,FC,FF,BC,FF,B1,
2790392,000000A9,false,Rx,0,8,5C,59,CD,0F,3E,CD,5F,11,
2792281,000000AA,false,Rx,0,8,1A,D9,FC,00,00,14,84,00,
2796583,000003EF,false,Rx,0,2,05,10,00,00,00,00,00,00,
2798323,000000A8,false,Rx,0,8,94,7A,FE,70,FE,F1,0F,02,
2800004,000001A6,false,Rx,1,8,F8,00,01,01,FF,00,00,FE,
2800267,000000CE,false,Rx,1,8,30,00,39,00,2D,00,34,00,
2800508,000000A9,false,Rx,0,8,6F,5A,CE,1F,3E,CE,5F,11,
2800529,000001A0,false,Rx,1,8,1E,B0,36,00,80,00,58,7F,
2802281,000000AA,false,Rx,0,8,2B,EA,FC,00,00,14,84,00,
2808308,000000A8,false,Rx,0,8,46,CB,FE,D0,FE,F1,0F,02,
2809919,000000B6,false,Rx,1,5,05,05,80,00,C8,00,00,00,
2810180,0000019E,false,Rx,1,8,00,E8,6F,FC,FF,BC,FF,B1,
2810353,000000A9,false,Rx,0,8,90,5B,CE,1F,3E,CE,7F,11,
2812283,000000AA,false,Rx,0,8,BB,EB,FC,00,90,13,84,00,
2815118,000001B6,false,Rx,0,8,FF,FF,00,00,18,A8,0F,00,
2818313,000000A8,false,Rx,0,8,F7,2C,FF,20,FF,F1,0F,02,
2818753,00000130,false,Rx,1,5,45,41,21,8F,F1,00,00,00,
2819992,000001A0,false,Rx,1,8,20,B0,27,00,80,00,68,82,
2820254,000000CE,false,Rx,1,8,30,00,39,00,2E,00,38,00,
2820487,000000A9,false,Rx,0,8,04,5C,CF,1F,3E,CF,EF,11,
2822266,000000AA,false,Rx,0,8,5C,FC,FC,00,20,13,84,00,
2828306,000000A8,false,Rx,0,8,F8,2D,FF,20,FF,F1,0F,02,
2829907,000000B6,false,Rx,1,5,06,06,80,00,C8,00,00,00,
2830158,0000019E,false,Rx,1,8,00,E8,6F,FC,FF,BC,FF,B1,
2830359,000000A9,false,Rx,0,8,94,1D,CF,1F,3E,CF,BF,11,
2832269,000000AA,false,Rx,0,8,FC,FD,FC,00,C0,12,84,00,
2838310,000000A8,false,Rx,0,8,5A,5E,FF,50,FF,F1,0F,02,
2839951,000001A0,false,Rx,1,8,21,B0,0F,00,80,00,78,7B,
2840203,000000CE,false,Rx,1,8,30,00,3A,00,30,00,39,00,
2840435,000000A9,false,Rx,0,8,97,1E,D0,0F,3E,D0,CF,11,
2842254,000000AA,false,Rx,0,8,AD,0E,FD,00,60,12,84,00,
2844061,000001B5,false,Rx,1,7,00,FF,FF,CF,F8,FF,00,00,
2848307,000000A8,false,Rx,0,8,6C,60,FF,60,FF,F1,0F,02,
2849898,000000B6,false,Rx,1,5,07,07,80,00,C8,00,00,00,
2850150,0000019E,false,Rx,1,8,00,E8,6F,FC,FF,BC,FF,B1,
2850333,000000A9,false,Rx,0,8,89,10,D0,0F,3E,D0,CF,11,
2850798,000001D0,false,Rx,0,8,5F,FF,6A,D2,39,59,CC,A3,
2852261,000000AA,false,Rx,0,8,9F,00,FD,00,60,12,84,00,
2855324,00000482,false,Rx,1,8,12,42,FE,01,FF,FF,FF,FF,
2858302,000000A8,false,Rx,0,8,AD,81,FF,80,FF,F1,0F,02,
2859944,000001A0,false,Rx,1,8,21,B0,17,00,80,00,88,93,
2860196,000000CE,false,Rx,1,8,30,00,3A,00,30,00,3A,00,
2860428,000000A9,false,Rx,0,8,5C,11,D1,1F,3E,D1,8F,11,
2861571,00000194,false,Rx,1,4,FB,FB,FF,FF,00,00,00,00,
2862244,000000AA,false,Rx,0,8,50,11,FD,00,00,12,84,00,
2868285,000000A8,false,Rx,0,8,AE,82,FF,80,FF,F1,0F,02,
2869886,000000B6,false,Rx,1,5,08,08,80,00,C8,00,00,00,
2870137,0000019E,false,Rx,1,8,00,E8,6F,FC,FF,BC,FF,B1,
2870320,000000A9,false,Rx,0,8,2D,12,D1,1F,3E,D1,5F,11,
2872241,000000AA,false,Rx,0,8,EC,12,FD,00,9C,11,84,00,
2873500,000001B4,false,Rx,1,8,20,D0,E6,F7,0F,FF,80,15,
2878301,000000A8,false,Rx,0,8,DF,93,FF,A0,FF,F1,0F,02,
2879933,000001A0,false,Rx,1,8,21,B0,07,00,80,00,98,93,
2880195,000000CE,false,Rx,1,8,32,00,3B,00,30,00,3A,00,
2880416,000000A9,false,Rx,0,8,42,13,D3,1F,3E,D3,6F,11,
2882236,000000AA,false,Rx,0,8,CD,33,FD,00,5C,11,84,00,
2883406,000001FB,false,Rx,1,2,F6,FF,00,00,00,00,00,00,
2888278,000000A8,false,Rx,0,8,90,74,FF,70,FF,F1,0F,02,
2889879,000000B6,false,Rx,1,5,09,09,80,00,C8,00,00,00,
2890130,0000019E,false,Rx,1,8,00,E8,6F,FC,FF,BC,FF,B1,
2890313,000000A9,false,Rx,0,8,33,14,D3,1F,3E,D3,5F,11,
2892233,000000AA,false,Rx,0,8,CE,34,FD,00,5C,11,84,00,
2895273,000001B6,false,Rx,0,8,FF,FF,00,00,17,A8,15,00,
2898293,000000A8,false,Rx,0,8,61,55,FF,60,FF,F1,0F,02,
2899914,000001A6,false,Rx,1,8,FC,00,05,01,04,01,90,FF,
2900176,000000CE,false,Rx,1,8,33,00,3E,00,30,00,39,00,
2900414,000000A9,false,Rx,0,8,E3,15,D3,1F,3E,D3,0F,11,
2900435,000001A0,false,Rx,1,8,21,B0,27,00,80,00,A8,C3,
2900897,00000200,false,Rx,0,8,42,81,FC,00,00,00,00,00,
2902231,000000AA,false,Rx,0,8,87,35,FD,00,14,11,84,00,
2908275,000000A8,false,Rx,0,8,62,56,FF,60,FF,F1,0F,02,
2909876,000000B6,false,Rx,1,5,0A,0A,80,00,C8,00,00,00,
2910137,0000019E,false,Rx,1,8,00,E8,7F,FC,FF,BC,FF,C1,
2910310,000000A9,false,Rx,0,8,94,16,D3,1F,3E,D3,BF,10,
2912221,000000AA,false,Rx,0,8,34,36,FD,00,C0,10,84,00,
2918269,000000A8,false,Rx,0,8,D3,97,FF,90,FF,F1,0F,02,
2918473,00000130,false,Rx,1,5,45,41,21,8F,02,00,00,00,
2919926,000001A0,false,Rx,1,8,21,B0,4E,00,80,00,B8,FA,
2920188,000000CE,false,Rx,1,8,35,00,3F,00,31,00,3A,00,
2920421,000000A9,false,Rx,0,8,87,17,D4,0F,3E,D4,BF,10,
2922323,000000AA,false,Rx,0,8,95,97,FD,00,C0,10,84,00,
2928260,000000A8,false,Rx,0,8,15,B8,FF,B0,FF,F1,0F,02,
2929851,000000B6,false,Rx,1,5,0B,0B,80,00,C8,00,00,00,
2930101,0000019E,false,Rx,1,8,00,E8,7F,FC,FF,BC,FF,C1,
2930285,000000A9,false,Rx,0,8,28,18,D4,0F,3E,D4,5F,10,
2932226,000000AA,false,Rx,0,8,4A,98,FD,00,74,10,84,00,
2938376,000000A8,false,Rx,0,8,36,C9,FF,C0,FF,F1,0F,02,
2939896,000001A0,false,Rx,1,8,22,B0,27,00,80,00,C8,E4,
2940158,000000CE,false,Rx,1,8,35,00,3E,00,31,00,3B,00,
2940381,000000A9,false,Rx,0,8,EA,19,D5,1F,3E,D5,0F,10,
2942211,000000AA,false,Rx,0,8,4F,D9,FD,00,38,10,84,00,
2948268,000000A8,false,Rx,0,8,37,CA,FF,C0,FF,F1,0F,02,
2949828,000000B6,false,Rx,1,5,0C,0C,80,00,C8,00,00,00,
2950089,0000019E,false,Rx,1,8,00,E8,7F,FC,FF,BC,FF,C1,
2950263,000000A9,false,Rx,0,8,EB,1A,D5,1F,3E,D5,0F,10,
2950739,000001D0,false,Rx,0,8,5F,FF,6B,D2,44,59,CC,A4,
2951777,00000492,false,Rx,0,8,29,42,FF,FF,FF,FF,FF,FF,
2952221,000000AA,false,Rx,0,8,50,DA,FD,00,38,10,84,00,
2958252,000000A8,false,Rx,0,8,48,CB,FF,D0,FF,F1,0F,02,
2959873,000001A0,false,Rx,1,8,22,B0,E9,0F,80,00,D8,C6,
2960135,000000CE,false,Rx,1,8,36,00,3E,00,32,00,3B,00,
2960357,000000A9,false,Rx,0,8,AC,1B,D5,1F,3E,D5,CF,0F,
2962207,000000AA,false,Rx,0,8,55,1B,FE,00,FC,0F,84,00,
2968327,000000A8,false,Rx,0,8,49,CC,FF,D0,FF,F1,0F,02,
2969172,00000311,false,Rx,1,2,00,F0,00,00,00,00,00,00,
2969813,000000B6,false,Rx,1,5,0D,0D,80,00,C8,00,00,00,
2970073,0000019E,false,Rx,1,8,00,E8,7F,FC,FF,BC,FF,C1,
2970257,000000A9,false,Rx,0,8,3D,1C,D5,1F,3E,D5,5F,0F,
2972200,000000AA,false,Rx,0,8,0E,1C,FE,00,B4,0F,84,00,
2973437,000001B4,false,Rx,1,8,24,D0,E6,F8,0F,FF,80,1A,
2976633,000001B6,false,Rx,0,8,FF,FF,00,00,16,A8,19,00,
2978254,000000A8,false,Rx,0,8,B8,0D,00,00,00,F1,0F,02,
2979866,000001A0,false,Rx,1,8,22,B0,F9,0F,80,00,E8,E6,
2980126,000000CE,false,Rx,1,8,38,00,40,00,32,00,3C,00,
2980360,000000A9,false,Rx,0,8,40,1D,D6,0F,3E,D6,6F,0F,
2982192,000000AA,false,Rx,0,8,9F,AD,FE,00,B4,0F,84,00,
2988237,000000A8,false,Rx,0,8,F9,2E,00,20,00,F1,0F,02,
2989818,000000B6,false,Rx,1,5,0E,0E,80,00,C8,00,00,00,
2990068,0000019E,false,Rx,1,8,00,E8,7F,FC,FF,BC,FF,C1,
2990262,000000A9,false,Rx,0,8,71,1E,D6,0F,3E,D6,9F,0F,
2992203,000000AA,false,Rx,0,8,58,AE,FE,00,6C,0F,84,00,
2993724,00000330,false,Rx,1,8,10,32,02,07,0F,00,ED,07,
2998232,000000A8,false,Rx,0,8,EB,20,00,20,00,F1,0F,02,
2999885,000001A6,false,Rx,1,8,00,01,09,01,09,01,20,F1,
3000146,000000CE,false,Rx,1,8,38,00,42,00,33,00,40,00,
3000385,000000A9,false,Rx,0,8,53,10,D6,0F,3E,D6,8F,0F,
3000406,000001A0,false,Rx,1,8,24,B0,46,00,80,00,08,45,
3002187,000000AA,false,Rx,0,8,72,F0,FE,00,44,0F,84,00,
3008228,000000A8,false,Rx,0,8,AC,01,00,00,00,F1,0F,02,
3009811,000000B6,false,Rx,1,5,FF,00,80,00,C8,00,00,00,
3010060,0000019E,false,Rx,1,8,00,E8,7F,FC,FF,BC,FF,C1,
3010254,000000A9,false,Rx,0,8,54,11,D6,0F,3E,D6,8F,0F,
3012196,000000AA,false,Rx,0,8,73,F1,FE,00,44,0F,84,00,
3018234,000000A8,false,Rx,0,8,AD,02,00,00,00,F1,0F,02,
3018675,00000130,false,Rx,1,5,45,41,21,8F,13,00,00,00,
3019885,000001A0,false,Rx,1,8,26,B0,46,00,80,00,18,57,
3020135,000000CE,false,Rx,1,8,39,00,42,00,33,00,46,00,
3020379,000000A9,false,Rx,0,8,05,12,D6,1F,3E,D6,2F,0F,
3022179,000000AA,false,Rx,0,8,78,22,FF,00,18,0F,84,00,
3028219,000000A8,false,Rx,0,8,AE,03,00,00,00,F1,0F,02,
3029791,000000B6,false,Rx,1,5,00,01,80,00,C8,00,00,00,
3030050,0000019E,false,Rx,1,8,00,E8,7F,FC,FF,BC,FF,C1,
3030272,000000A9,false,Rx,0,8,06,13,D6,1F,3E,D6,2F,0F,
3032174,000000AA,false,Rx,0,8,41,23,FF,00,E0,0E,84,00,
3038225,000000A8,false,Rx,0,8,EF,24,00,20,00,F1,0F,02,
3039836,000001A0,false,Rx,1,8,26,B0,84,00,80,00,28,A5,
3040096,000000CE,false,Rx,1,8,39,00,40,00,33,00,49,00,
3040329,000000A9,false,Rx,0,8,F8,14,D7,0F,3E,D7,2F,0F,
3042169,000000AA,false,Rx,0,8,B2,94,FF,00,E0,0E,84,00,
3048220,000000A8,false,Rx,0,8,71,65,00,60,00,F1,0F,02,
3049770,000000B6,false,Rx,1,5,02,02,80,00,C8,00,00,00,
3050029,000004A9,false,Rx,1,8,30,42,FF,FF,FF,FF,FF,FF,
3050214,000000A9,false,Rx,0,8,A9,15,D7,0F,3E,D7,DF,0E,
3050282,0000019E,false,Rx,1,8,00,E8,7F,FC,FF,BC,FF,C1,
